;$FILEVERSION=1.1
;$STARTTIME=41714.6977209954
;
;   C:\Users\Dan Kasamis\Documents\drivehome.trc
;
;   Start time: 3/16/2014 16:44:43.094.0
;
;   Message Number
;   |         Time Offset (ms)
;   |         |        Type
;   |         |        |        ID (hex)
;   |         |        |        |     Data Length Code
;   |         |        |        |     |   Data Bytes (hex) ...
;   |         |        |        |     |   |
;---+--   ----+----  --+--  ----+---  +  -+ -- -- -- -- -- -- --
     1)        50.4  Rx         07DF  8  02 01 05 55 55 55 55 55 
     2)        54.5  Rx         07E8  8  03 41 05 73 00 00 00 00 
     3)       150.5  Rx         07DF  8  02 01 04 55 55 55 55 55 
     4)       152.7  Rx         07E8  8  03 41 04 51 00 00 00 00 
     5)       250.4  Rx         07DF  8  02 01 10 55 55 55 55 55 
     6)       255.1  Rx         07E8  8  04 41 10 01 22 00 00 00 
     7)       350.4  Rx         07DF  8  02 01 0F 55 55 55 55 55 
     8)       353.4  Rx         07E8  8  03 41 0F 3F 00 00 00 00 
     9)       450.3  Rx         07DF  8  02 01 0D 55 55 55 55 55 
    10)       451.7  Rx         07E8  8  03 41 0D 00 00 00 00 00 
    11)       550.4  Rx         07DF  8  02 01 0C 55 55 55 55 55 
    12)       554.5  Rx         07E8  8  04 41 0C 0A 02 00 00 00 
    13)       651.0  Rx         07DF  8  02 01 11 55 55 55 55 55 
    14)       652.9  Rx         07E8  8  03 41 11 27 00 00 00 00 
    15)       750.3  Rx         07DF  8  02 01 05 55 55 55 55 55 
    16)       754.8  Rx         07E8  8  03 41 05 73 00 00 00 00 
    17)       850.4  Rx         07DF  8  02 01 04 55 55 55 55 55 
    18)       853.1  Rx         07E8  8  03 41 04 50 00 00 00 00 
    19)       950.4  Rx         07DF  8  02 01 10 55 55 55 55 55 
    20)       955.5  Rx         07E8  8  04 41 10 01 21 00 00 00 
    21)      1050.3  Rx         07DF  8  02 01 0F 55 55 55 55 55 
    22)      1054.1  Rx         07E8  8  03 41 0F 40 00 00 00 00 
    23)      1150.5  Rx         07DF  8  02 01 0D 55 55 55 55 55 
    24)      1152.4  Rx         07E8  8  03 41 0D 00 00 00 00 00 
    25)      1250.4  Rx         07DF  8  02 01 0C 55 55 55 55 55 
    26)      1254.5  Rx         07E8  8  04 41 0C 09 F9 00 00 00 
    27)      1350.3  Rx         07DF  8  02 01 11 55 55 55 55 55 
    28)      1353.1  Rx         07E8  8  03 41 11 27 00 00 00 00 
    29)      1450.3  Rx         07DF  8  02 01 05 55 55 55 55 55 
    30)      1455.4  Rx         07E8  8  03 41 05 73 00 00 00 00 
    31)      1550.3  Rx         07DF  8  02 01 04 55 55 55 55 55 
    32)      1554.2  Rx         07E8  8  03 41 04 51 00 00 00 00 
    33)      1651.0  Rx         07DF  8  02 01 10 55 55 55 55 55 
    34)      1656.6  Rx         07E8  8  04 41 10 01 22 00 00 00 
    35)      1750.3  Rx         07DF  8  02 01 0F 55 55 55 55 55 
    36)      1754.2  Rx         07E8  8  03 41 0F 40 00 00 00 00 
    37)      1850.3  Rx         07DF  8  02 01 0D 55 55 55 55 55 
    38)      1852.5  Rx         07E8  8  03 41 0D 00 00 00 00 00 
    39)      1950.3  Rx         07DF  8  02 01 0C 55 55 55 55 55 
    40)      1954.9  Rx         07E8  8  04 41 0C 0A 15 00 00 00 
    41)      2050.3  Rx         07DF  8  02 01 11 55 55 55 55 55 
    42)      2053.2  Rx         07E8  8  03 41 11 27 00 00 00 00 
    43)      2150.7  Rx         07DF  8  02 01 05 55 55 55 55 55 
    44)      2155.6  Rx         07E8  8  03 41 05 73 00 00 00 00 
    45)      2250.3  Rx         07DF  8  02 01 04 55 55 55 55 55 
    46)      2253.9  Rx         07E8  8  03 41 04 51 00 00 00 00 
    47)      2350.3  Rx         07DF  8  02 01 10 55 55 55 55 55 
    48)      2352.2  Rx         07E8  8  04 41 10 01 22 00 00 00 
    49)      2450.2  Rx         07DF  8  02 01 0F 55 55 55 55 55 
    50)      2454.6  Rx         07E8  8  03 41 0F 40 00 00 00 00 
    51)      2550.2  Rx         07DF  8  02 01 0D 55 55 55 55 55 
    52)      2552.9  Rx         07E8  8  03 41 0D 00 00 00 00 00 
    53)      2650.7  Rx         07DF  8  02 01 0C 55 55 55 55 55 
    54)      2655.3  Rx         07E8  8  04 41 0C 0A 08 00 00 00 
    55)      2750.2  Rx         07DF  8  02 01 11 55 55 55 55 55 
    56)      2753.6  Rx         07E8  8  03 41 11 27 00 00 00 00 
    57)      2850.2  Rx         07DF  8  02 01 05 55 55 55 55 55 
    58)      2851.9  Rx         07E8  8  03 41 05 73 00 00 00 00 
    59)      2950.2  Rx         07DF  8  02 01 04 55 55 55 55 55 
    60)      2954.3  Rx         07E8  8  03 41 04 51 00 00 00 00 
    61)      3050.2  Rx         07DF  8  02 01 10 55 55 55 55 55 
    62)      3052.6  Rx         07E8  8  04 41 10 01 1D 00 00 00 
    63)      3150.7  Rx         07DF  8  02 01 0F 55 55 55 55 55 
    64)      3155.3  Rx         07E8  8  03 41 0F 40 00 00 00 00 
    65)      3250.2  Rx         07DF  8  02 01 0D 55 55 55 55 55 
    66)      3254.0  Rx         07E8  8  03 41 0D 00 00 00 00 00 
    67)      3350.3  Rx         07DF  8  02 01 0C 55 55 55 55 55 
    68)      3351.7  Rx         07E8  8  04 41 0C 09 BD 00 00 00 
    69)      3450.3  Rx         07DF  8  02 01 11 55 55 55 55 55 
    70)      3454.1  Rx         07E8  8  03 41 11 29 00 00 00 00 
    71)      3550.3  Rx         07DF  8  02 01 05 55 55 55 55 55 
    72)      3552.4  Rx         07E8  8  03 41 05 73 00 00 00 00 
    73)      3651.4  Rx         07DF  8  02 01 04 55 55 55 55 55 
    74)      3654.8  Rx         07E8  8  03 41 04 5B 00 00 00 00 
    75)      3750.2  Rx         07DF  8  02 01 10 55 55 55 55 55 
    76)      3753.3  Rx         07E8  8  04 41 10 01 9A 00 00 00 
    77)      3850.3  Rx         07DF  8  02 01 0F 55 55 55 55 55 
    78)      3856.1  Rx         07E8  8  03 41 0F 40 00 00 00 00 
    79)      3950.3  Rx         07DF  8  02 01 0D 55 55 55 55 55 
    80)      3954.1  Rx         07E8  8  03 41 0D 00 00 00 00 00 
    81)      4050.3  Rx         07DF  8  02 01 0C 55 55 55 55 55 
    82)      4052.4  Rx         07E8  8  04 41 0C 0A C1 00 00 00 
    83)      4150.7  Rx         07DF  8  02 01 11 55 55 55 55 55 
    84)      4154.5  Rx         07E8  8  03 41 11 29 00 00 00 00 
    85)      4250.3  Rx         07DF  8  02 01 05 55 55 55 55 55 
    86)      4254.0  Rx         07E8  8  03 41 05 73 00 00 00 00 
    87)      4350.3  Rx         07DF  8  02 01 04 55 55 55 55 55 
    88)      4355.7  Rx         07E8  8  03 41 04 5D 00 00 00 00 
    89)      4450.3  Rx         07DF  8  02 01 10 55 55 55 55 55 
    90)      4454.0  Rx         07E8  8  04 41 10 01 7D 00 00 00 
    91)      4550.2  Rx         07DF  8  02 01 0F 55 55 55 55 55 
    92)      4551.8  Rx         07E8  8  03 41 0F 3F 00 00 00 00 
    93)      4651.2  Rx         07DF  8  02 01 0D 55 55 55 55 55 
    94)      4654.2  Rx         07E8  8  03 41 0D 00 00 00 00 00 
    95)      4750.2  Rx         07DF  8  02 01 0C 55 55 55 55 55 
    96)      4753.1  Rx         07E8  8  04 41 0C 0A 6F 00 00 00 
    97)      4850.2  Rx         07DF  8  02 01 11 55 55 55 55 55 
    98)      4855.8  Rx         07E8  8  03 41 11 28 00 00 00 00 
    99)      4950.2  Rx         07DF  8  02 01 05 55 55 55 55 55 
   100)      4953.4  Rx         07E8  8  03 41 05 73 00 00 00 00 
   101)      5050.3  Rx         07DF  8  02 01 04 55 55 55 55 55 
   102)      5051.5  Rx         07E8  8  03 41 04 5D 00 00 00 00 
   103)      5150.6  Rx         07DF  8  02 01 10 55 55 55 55 55 
   104)      5154.0  Rx         07E8  8  04 41 10 01 7B 00 00 00 
   105)      5250.2  Rx         07DF  8  02 01 0F 55 55 55 55 55 
   106)      5252.3  Rx         07E8  8  03 41 0F 3F 00 00 00 00 
   107)      5350.3  Rx         07DF  8  02 01 0D 55 55 55 55 55 
   108)      5354.7  Rx         07E8  8  03 41 0D 00 00 00 00 00 
   109)      5450.3  Rx         07DF  8  02 01 0C 55 55 55 55 55 
   110)      5453.0  Rx         07E8  8  04 41 0C 0A 5D 00 00 00 
   111)      5550.2  Rx         07DF  8  02 01 11 55 55 55 55 55 
   112)      5555.3  Rx         07E8  8  03 41 11 28 00 00 00 00 
   113)      5650.8  Rx         07DF  8  02 01 05 55 55 55 55 55 
   114)      5653.6  Rx         07E8  8  03 41 05 73 00 00 00 00 
   115)      5750.1  Rx         07DF  8  02 01 04 55 55 55 55 55 
   116)      5751.9  Rx         07E8  8  03 41 04 5D 00 00 00 00 
   117)      5850.2  Rx         07DF  8  02 01 10 55 55 55 55 55 
   118)      5854.3  Rx         07E8  8  04 41 10 01 77 00 00 00 
   119)      5950.2  Rx         07DF  8  02 01 0F 55 55 55 55 55 
   120)      5952.6  Rx         07E8  8  03 41 0F 3F 00 00 00 00 
   121)      6050.2  Rx         07DF  8  02 01 0D 55 55 55 55 55 
   122)      6055.1  Rx         07E8  8  03 41 0D 00 00 00 00 00 
   123)      6150.2  Rx         07DF  8  02 01 0C 55 55 55 55 55 
   124)      6153.3  Rx         07E8  8  04 41 0C 0A 50 00 00 00 
   125)      6250.2  Rx         07DF  8  02 01 11 55 55 55 55 55 
   126)      6251.7  Rx         07E8  8  03 41 11 28 00 00 00 00 
   127)      6350.2  Rx         07DF  8  02 01 05 55 55 55 55 55 
   128)      6354.3  Rx         07E8  8  03 41 05 73 00 00 00 00 
   129)      6450.2  Rx         07DF  8  02 01 04 55 55 55 55 55 
   130)      6452.6  Rx         07E8  8  03 41 04 5D 00 00 00 00 
   131)      6550.2  Rx         07DF  8  02 01 10 55 55 55 55 55 
   132)      6555.3  Rx         07E8  8  04 41 10 01 78 00 00 00 
   133)      6651.3  Rx         07DF  8  02 01 0F 55 55 55 55 55 
   134)      6653.1  Rx         07E8  8  03 41 0F 3F 00 00 00 00 
   135)      6750.2  Rx         07DF  8  02 01 0D 55 55 55 55 55 
   136)      6755.5  Rx         07E8  8  03 41 0D 00 00 00 00 00 
   137)      6850.2  Rx         07DF  8  02 01 0C 55 55 55 55 55 
   138)      6853.8  Rx         07E8  8  04 41 0C 0A 41 00 00 00 
   139)      6950.2  Rx         07DF  8  02 01 11 55 55 55 55 55 
   140)      6952.4  Rx         07E8  8  03 41 11 28 00 00 00 00 
   141)      7050.2  Rx         07DF  8  02 01 05 55 55 55 55 55 
   142)      7054.9  Rx         07E8  8  03 41 05 74 00 00 00 00 
   143)      7150.2  Rx         07DF  8  02 01 04 55 55 55 55 55 
   144)      7152.8  Rx         07E8  8  03 41 04 5D 00 00 00 00 
   145)      7250.2  Rx         07DF  8  02 01 10 55 55 55 55 55 
   146)      7255.5  Rx         07E8  8  04 41 10 01 78 00 00 00 
   147)      7350.2  Rx         07DF  8  02 01 0F 55 55 55 55 55 
   148)      7353.6  Rx         07E8  8  03 41 0F 3F 00 00 00 00 
   149)      7450.2  Rx         07DF  8  02 01 0D 55 55 55 55 55 
   150)      7452.2  Rx         07E8  8  03 41 0D 00 00 00 00 00 
   151)      7550.2  Rx         07DF  8  02 01 0C 55 55 55 55 55 
   152)      7555.5  Rx         07E8  8  04 41 0C 0A 63 00 00 00 
   153)      7650.1  Rx         07DF  8  02 01 11 55 55 55 55 55 
   154)      7652.5  Rx         07E8  8  03 41 11 28 00 00 00 00 
   155)      7750.1  Rx         07DF  8  02 01 05 55 55 55 55 55 
   156)      7755.4  Rx         07E8  8  03 41 05 74 00 00 00 00 
   157)      7850.5  Rx         07DF  8  02 01 04 55 55 55 55 55 
   158)      7853.2  Rx         07E8  8  03 41 04 5D 00 00 00 00 
   159)      7950.1  Rx         07DF  8  02 01 10 55 55 55 55 55 
   160)      7952.5  Rx         07E8  8  04 41 10 01 78 00 00 00 
   161)      8050.1  Rx         07DF  8  02 01 0F 55 55 55 55 55 
   162)      8054.9  Rx         07E8  8  03 41 0F 3F 00 00 00 00 
   163)      8150.1  Rx         07DF  8  02 01 0D 55 55 55 55 55 
   164)      8152.2  Rx         07E8  8  03 41 0D 00 00 00 00 00 
   165)      8250.1  Rx         07DF  8  02 01 0C 55 55 55 55 55 
   166)      8254.8  Rx         07E8  8  04 41 0C 0A 28 00 00 00 
   167)      8350.1  Rx         07DF  8  02 01 11 55 55 55 55 55 
   168)      8352.9  Rx         07E8  8  03 41 11 28 00 00 00 00 
   169)      8450.1  Rx         07DF  8  02 01 05 55 55 55 55 55 
   170)      8455.4  Rx         07E8  8  03 41 05 74 00 00 00 00 
   171)      8550.2  Rx         07DF  8  02 01 04 55 55 55 55 55 
   172)      8554.9  Rx         07E8  8  03 41 04 5E 00 00 00 00 
   173)      8651.2  Rx         07DF  8  02 01 10 55 55 55 55 55 
   174)      8656.7  Rx         07E8  8  04 41 10 01 78 00 00 00 
   175)      8750.1  Rx         07DF  8  02 01 0F 55 55 55 55 55 
   176)      8754.4  Rx         07E8  8  03 41 0F 3F 00 00 00 00 
   177)      8850.2  Rx         07DF  8  02 01 0D 55 55 55 55 55 
   178)      8852.7  Rx         07E8  8  03 41 0D 00 00 00 00 00 
   179)      8950.2  Rx         07DF  8  02 01 0C 55 55 55 55 55 
   180)      8955.1  Rx         07E8  8  04 41 0C 0A 56 00 00 00 
   181)      9050.2  Rx         07DF  8  02 01 11 55 55 55 55 55 
   182)      9053.4  Rx         07E8  8  03 41 11 28 00 00 00 00 
   183)      9150.8  Rx         07DF  8  02 01 05 55 55 55 55 55 
   184)      9155.8  Rx         07E8  8  03 41 05 74 00 00 00 00 
   185)      9250.1  Rx         07DF  8  02 01 04 55 55 55 55 55 
   186)      9254.1  Rx         07E8  8  03 41 04 5E 00 00 00 00 
   187)      9350.3  Rx         07DF  8  02 01 10 55 55 55 55 55 
   188)      9352.4  Rx         07E8  8  04 41 10 01 78 00 00 00 
   189)      9450.3  Rx         07DF  8  02 01 0F 55 55 55 55 55 
   190)      9454.8  Rx         07E8  8  03 41 0F 3F 00 00 00 00 
   191)      9550.2  Rx         07DF  8  02 01 0D 55 55 55 55 55 
   192)      9553.2  Rx         07E8  8  03 41 0D 00 00 00 00 00 
   193)      9651.1  Rx         07DF  8  02 01 0C 55 55 55 55 55 
   194)      9655.8  Rx         07E8  8  04 41 0C 09 C7 00 00 00 
   195)      9750.1  Rx         07DF  8  02 01 11 55 55 55 55 55 
   196)      9753.8  Rx         07E8  8  03 41 11 29 00 00 00 00 
   197)      9850.3  Rx         07DF  8  02 01 05 55 55 55 55 55 
   198)      9852.4  Rx         07E8  8  03 41 05 74 00 00 00 00 
   199)      9950.1  Rx         07DF  8  02 01 04 55 55 55 55 55 
   200)      9954.5  Rx         07E8  8  03 41 04 60 00 00 00 00 
   201)     10050.1  Rx         07DF  8  02 01 10 55 55 55 55 55 
   202)     10052.9  Rx         07E8  8  04 41 10 01 83 00 00 00 
   203)     10150.9  Rx         07DF  8  02 01 0F 55 55 55 55 55 
   204)     10155.3  Rx         07E8  8  03 41 0F 3F 00 00 00 00 
   205)     10250.1  Rx         07DF  8  02 01 0D 55 55 55 55 55 
   206)     10254.0  Rx         07E8  8  03 41 0D 00 00 00 00 00 
   207)     10350.2  Rx         07DF  8  02 01 0C 55 55 55 55 55 
   208)     10351.9  Rx         07E8  8  04 41 0C 0A 76 00 00 00 
   209)     10450.1  Rx         07DF  8  02 01 11 55 55 55 55 55 
   210)     10454.3  Rx         07E8  8  03 41 11 28 00 00 00 00 
   211)     10550.1  Rx         07DF  8  02 01 05 55 55 55 55 55 
   212)     10552.6  Rx         07E8  8  03 41 05 74 00 00 00 00 
   213)     10651.0  Rx         07DF  8  02 01 04 55 55 55 55 55 
   214)     10655.0  Rx         07E8  8  03 41 04 5F 00 00 00 00 
   215)     10750.2  Rx         07DF  8  02 01 10 55 55 55 55 55 
   216)     10753.3  Rx         07E8  8  04 41 10 01 7B 00 00 00 
   217)     10850.1  Rx         07DF  8  02 01 0F 55 55 55 55 55 
   218)     10851.5  Rx         07E8  8  03 41 0F 3F 00 00 00 00 
   219)     10950.0  Rx         07DF  8  02 01 0D 55 55 55 55 55 
   220)     10953.9  Rx         07E8  8  03 41 0D 00 00 00 00 00 
   221)     11050.1  Rx         07DF  8  02 01 0C 55 55 55 55 55 
   222)     11052.2  Rx         07E8  8  04 41 0C 09 F2 00 00 00 
   223)     11150.1  Rx         07DF  8  02 01 11 55 55 55 55 55 
   224)     11154.7  Rx         07E8  8  03 41 11 29 00 00 00 00 
   225)     11250.1  Rx         07DF  8  02 01 05 55 55 55 55 55 
   226)     11254.0  Rx         07E8  8  03 41 05 74 00 00 00 00 
   227)     11350.2  Rx         07DF  8  02 01 04 55 55 55 55 55 
   228)     11356.1  Rx         07E8  8  03 41 04 60 00 00 00 00 
   229)     11450.1  Rx         07DF  8  02 01 10 55 55 55 55 55 
   230)     11453.8  Rx         07E8  8  04 41 10 01 7D 00 00 00 
   231)     11550.1  Rx         07DF  8  02 01 0F 55 55 55 55 55 
   232)     11552.0  Rx         07E8  8  03 41 0F 3F 00 00 00 00 
   233)     11650.1  Rx         07DF  8  02 01 0D 55 55 55 55 55 
   234)     11654.4  Rx         07E8  8  03 41 0D 00 00 00 00 00 
   235)     11750.1  Rx         07DF  8  02 01 0C 55 55 55 55 55 
   236)     11753.3  Rx         07E8  8  04 41 0C 0A 66 00 00 00 
   237)     11850.2  Rx         07DF  8  02 01 11 55 55 55 55 55 
   238)     11855.1  Rx         07E8  8  03 41 11 28 00 00 00 00 
   239)     11950.1  Rx         07DF  8  02 01 05 55 55 55 55 55 
   240)     11953.6  Rx         07E8  8  03 41 05 74 00 00 00 00 
   241)     12050.1  Rx         07DF  8  02 01 04 55 55 55 55 55 
   242)     12051.7  Rx         07E8  8  03 41 04 5E 00 00 00 00 
   243)     12150.1  Rx         07DF  8  02 01 10 55 55 55 55 55 
   244)     12154.1  Rx         07E8  8  04 41 10 01 78 00 00 00 
   245)     12250.0  Rx         07DF  8  02 01 0F 55 55 55 55 55 
   246)     12252.7  Rx         07E8  8  03 41 0F 3F 00 00 00 00 
   247)     12350.4  Rx         07DF  8  02 01 0D 55 55 55 55 55 
   248)     12354.8  Rx         07E8  8  03 41 0D 00 00 00 00 00 
   249)     12450.1  Rx         07DF  8  02 01 0C 55 55 55 55 55 
   250)     12453.4  Rx         07E8  8  04 41 0C 0A 28 00 00 00 
   251)     12550.1  Rx         07DF  8  02 01 11 55 55 55 55 55 
   252)     12551.4  Rx         07E8  8  03 41 11 28 00 00 00 00 
   253)     12650.1  Rx         07DF  8  02 01 05 55 55 55 55 55 
   254)     12653.8  Rx         07E8  8  03 41 05 74 00 00 00 00 
   255)     12750.1  Rx         07DF  8  02 01 04 55 55 55 55 55 
   256)     12752.4  Rx         07E8  8  03 41 04 5E 00 00 00 00 
   257)     12850.3  Rx         07DF  8  02 01 10 55 55 55 55 55 
   258)     12854.5  Rx         07E8  8  04 41 10 01 7B 00 00 00 
   259)     12950.0  Rx         07DF  8  02 01 0F 55 55 55 55 55 
   260)     12953.2  Rx         07E8  8  03 41 0F 3F 00 00 00 00 
   261)     13050.0  Rx         07DF  8  02 01 0D 55 55 55 55 55 
   262)     13055.6  Rx         07E8  8  03 41 0D 00 00 00 00 00 
   263)     13150.0  Rx         07DF  8  02 01 0C 55 55 55 55 55 
   264)     13153.5  Rx         07E8  8  04 41 0C 0A 34 00 00 00 
   265)     13250.0  Rx         07DF  8  02 01 11 55 55 55 55 55 
   266)     13251.8  Rx         07E8  8  03 41 11 28 00 00 00 00 
   267)     13350.9  Rx         07DF  8  02 01 05 55 55 55 55 55 
   268)     13354.2  Rx         07E8  8  03 41 05 74 00 00 00 00 
   269)     13450.0  Rx         07DF  8  02 01 04 55 55 55 55 55 
   270)     13452.7  Rx         07E8  8  03 41 04 5D 00 00 00 00 
   271)     13550.0  Rx         07DF  8  02 01 10 55 55 55 55 55 
   272)     13555.5  Rx         07E8  8  04 41 10 01 73 00 00 00 
   273)     13650.0  Rx         07DF  8  02 01 0F 55 55 55 55 55 
   274)     13653.2  Rx         07E8  8  03 41 0F 3F 00 00 00 00 
   275)     13750.0  Rx         07DF  8  02 01 0D 55 55 55 55 55 
   276)     13751.6  Rx         07E8  8  03 41 0D 00 00 00 00 00 
   277)     13850.4  Rx         07DF  8  02 01 0C 55 55 55 55 55 
   278)     13854.0  Rx         07E8  8  04 41 0C 0A 28 00 00 00 
   279)     13950.0  Rx         07DF  8  02 01 11 55 55 55 55 55 
   280)     13952.9  Rx         07E8  8  03 41 11 28 00 00 00 00 
   281)     14050.1  Rx         07DF  8  02 01 05 55 55 55 55 55 
   282)     14055.4  Rx         07E8  8  03 41 05 74 00 00 00 00 
   283)     14150.1  Rx         07DF  8  02 01 04 55 55 55 55 55 
   284)     14153.0  Rx         07E8  8  03 41 04 5D 00 00 00 00 
   285)     14250.1  Rx         07DF  8  02 01 10 55 55 55 55 55 
   286)     14255.4  Rx         07E8  8  04 41 10 01 DF 00 00 00 
   287)     14350.4  Rx         07DF  8  02 01 0F 55 55 55 55 55 
   288)     14353.7  Rx         07E8  8  03 41 0F 3F 00 00 00 00 
   289)     14450.0  Rx         07DF  8  02 01 0D 55 55 55 55 55 
   290)     14452.1  Rx         07E8  8  03 41 0D 00 00 00 00 00 
   291)     14550.1  Rx         07DF  8  02 01 0C 55 55 55 55 55 
   292)     14555.6  Rx         07E8  8  04 41 0C 0A A1 00 00 00 
   293)     14650.1  Rx         07DF  8  02 01 11 55 55 55 55 55 
   294)     14652.8  Rx         07E8  8  03 41 11 28 00 00 00 00 
   295)     14750.1  Rx         07DF  8  02 01 05 55 55 55 55 55 
   296)     14755.2  Rx         07E8  8  03 41 05 74 00 00 00 00 
   297)     14850.2  Rx         07DF  8  02 01 04 55 55 55 55 55 
   298)     14853.5  Rx         07E8  8  03 41 04 61 00 00 00 00 
   299)     14950.0  Rx         07DF  8  02 01 10 55 55 55 55 55 
   300)     14951.7  Rx         07E8  8  04 41 10 01 6F 00 00 00 
   301)     15050.0  Rx         07DF  8  02 01 0F 55 55 55 55 55 
   302)     15054.1  Rx         07E8  8  03 41 0F 3F 00 00 00 00 
   303)     15150.0  Rx         07DF  8  02 01 0D 55 55 55 55 55 
   304)     15152.4  Rx         07E8  8  03 41 0D 00 00 00 00 00 
   305)     15250.0  Rx         07DF  8  02 01 0C 55 55 55 55 55 
   306)     15255.1  Rx         07E8  8  04 41 0C 0A 63 00 00 00 
   307)     15351.1  Rx         07DF  8  02 01 11 55 55 55 55 55 
   308)     15353.1  Rx         07E8  8  03 41 11 2D 00 00 00 00 
   309)     15450.0  Rx         07DF  8  02 01 05 55 55 55 55 55 
   310)     15451.4  Rx         07E8  8  03 41 05 74 00 00 00 00 
   311)     15550.0  Rx         07DF  8  02 01 04 55 55 55 55 55 
   312)     15554.1  Rx         07E8  8  03 41 04 74 00 00 00 00 
   313)     15650.0  Rx         07DF  8  02 01 10 55 55 55 55 55 
   314)     15652.1  Rx         07E8  8  04 41 10 04 CC 00 00 00 
   315)     15750.0  Rx         07DF  8  02 01 0F 55 55 55 55 55 
   316)     15754.8  Rx         07E8  8  03 41 0F 3F 00 00 00 00 
   317)     15850.6  Rx         07DF  8  02 01 0D 55 55 55 55 55 
   318)     15852.9  Rx         07E8  8  03 41 0D 00 00 00 00 00 
   319)     15950.0  Rx         07DF  8  02 01 0C 55 55 55 55 55 
   320)     15955.3  Rx         07E8  8  04 41 0C 14 D0 00 00 00 
   321)     16050.0  Rx         07DF  8  02 01 11 55 55 55 55 55 
   322)     16053.6  Rx         07E8  8  03 41 11 2E 00 00 00 00 
   323)     16150.0  Rx         07DF  8  02 01 05 55 55 55 55 55 
   324)     16151.9  Rx         07E8  8  03 41 05 74 00 00 00 00 
   325)     16250.0  Rx         07DF  8  02 01 04 55 55 55 55 55 
   326)     16254.4  Rx         07E8  8  03 41 04 7B 00 00 00 00 
   327)     16350.4  Rx         07DF  8  02 01 10 55 55 55 55 55 
   328)     16352.7  Rx         07E8  8  04 41 10 02 9B 00 00 00 
   329)     16450.0  Rx         07DF  8  02 01 0F 55 55 55 55 55 
   330)     16455.0  Rx         07E8  8  03 41 0F 3F 00 00 00 00 
   331)     16550.0  Rx         07DF  8  02 01 0D 55 55 55 55 55 
   332)     16553.3  Rx         07E8  8  03 41 0D 00 00 00 00 00 
   333)     16650.0  Rx         07DF  8  02 01 0C 55 55 55 55 55 
   334)     16652.2  Rx         07E8  8  04 41 0C 0E D8 00 00 00 
   335)     16750.0  Rx         07DF  8  02 01 11 55 55 55 55 55 
   336)     16754.1  Rx         07E8  8  03 41 11 28 00 00 00 00 
   337)     16850.2  Rx         07DF  8  02 01 05 55 55 55 55 55 
   338)     16852.3  Rx         07E8  8  03 41 05 74 00 00 00 00 
   339)     16950.0  Rx         07DF  8  02 01 04 55 55 55 55 55 
   340)     16954.8  Rx         07E8  8  03 41 04 5C 00 00 00 00 
   341)     17049.9  Rx         07DF  8  02 01 10 55 55 55 55 55 
   342)     17053.0  Rx         07E8  8  04 41 10 01 6F 00 00 00 
   343)     17149.9  Rx         07DF  8  02 01 0F 55 55 55 55 55 
   344)     17152.0  Rx         07E8  8  03 41 0F 3F 00 00 00 00 
   345)     17249.9  Rx         07DF  8  02 01 0D 55 55 55 55 55 
   346)     17254.6  Rx         07E8  8  03 41 0D 05 00 00 00 00 
   347)     17350.9  Rx         07DF  8  02 01 0C 55 55 55 55 55 
   348)     17356.2  Rx         07E8  8  04 41 0C 0B FF 00 00 00 
   349)     17449.9  Rx         07DF  8  02 01 11 55 55 55 55 55 
   350)     17454.4  Rx         07E8  8  03 41 11 28 00 00 00 00 
   351)     17549.9  Rx         07DF  8  02 01 05 55 55 55 55 55 
   352)     17552.7  Rx         07E8  8  03 41 05 74 00 00 00 00 
   353)     17650.0  Rx         07DF  8  02 01 04 55 55 55 55 55 
   354)     17655.1  Rx         07E8  8  03 41 04 54 00 00 00 00 
   355)     17749.9  Rx         07DF  8  02 01 10 55 55 55 55 55 
   356)     17754.0  Rx         07E8  8  04 41 10 01 64 00 00 00 
   357)     17850.5  Rx         07DF  8  02 01 0F 55 55 55 55 55 
   358)     17856.8  Rx         07E8  8  03 41 0F 3F 00 00 00 00 
   359)     17949.9  Rx         07DF  8  02 01 0D 55 55 55 55 55 
   360)     17954.3  Rx         07E8  8  03 41 0D 06 00 00 00 00 
   361)     18050.0  Rx         07DF  8  02 01 0C 55 55 55 55 55 
   362)     18052.5  Rx         07E8  8  04 41 0C 0B 5A 00 00 00 
   363)     18149.9  Rx         07DF  8  02 01 11 55 55 55 55 55 
   364)     18154.8  Rx         07E8  8  03 41 11 28 00 00 00 00 
   365)     18249.9  Rx         07DF  8  02 01 05 55 55 55 55 55 
   366)     18253.1  Rx         07E8  8  03 41 05 74 00 00 00 00 
   367)     18350.8  Rx         07DF  8  02 01 04 55 55 55 55 55 
   368)     18355.5  Rx         07E8  8  03 41 04 54 00 00 00 00 
   369)     18449.9  Rx         07DF  8  02 01 10 55 55 55 55 55 
   370)     18453.9  Rx         07E8  8  04 41 10 01 61 00 00 00 
   371)     18550.0  Rx         07DF  8  02 01 0F 55 55 55 55 55 
   372)     18552.2  Rx         07E8  8  03 41 0F 3F 00 00 00 00 
   373)     18649.9  Rx         07DF  8  02 01 0D 55 55 55 55 55 
   374)     18654.6  Rx         07E8  8  03 41 0D 08 00 00 00 00 
   375)     18749.9  Rx         07DF  8  02 01 0C 55 55 55 55 55 
   376)     18752.9  Rx         07E8  8  04 41 0C 0B 12 00 00 00 
   377)     18850.3  Rx         07DF  8  02 01 11 55 55 55 55 55 
   378)     18855.5  Rx         07E8  8  03 41 11 28 00 00 00 00 
   379)     18949.9  Rx         07DF  8  02 01 05 55 55 55 55 55 
   380)     18953.6  Rx         07E8  8  03 41 05 74 00 00 00 00 
   381)     19050.0  Rx         07DF  8  02 01 04 55 55 55 55 55 
   382)     19051.9  Rx         07E8  8  03 41 04 53 00 00 00 00 
   383)     19149.8  Rx         07DF  8  02 01 10 55 55 55 55 55 
   384)     19154.2  Rx         07E8  8  04 41 10 01 89 00 00 00 
   385)     19249.8  Rx         07DF  8  02 01 0F 55 55 55 55 55 
   386)     19252.5  Rx         07E8  8  03 41 0F 3F 00 00 00 00 
   387)     19350.8  Rx         07DF  8  02 01 0D 55 55 55 55 55 
   388)     19354.9  Rx         07E8  8  03 41 0D 08 00 00 00 00 
   389)     19449.9  Rx         07DF  8  02 01 0C 55 55 55 55 55 
   390)     19453.5  Rx         07E8  8  04 41 0C 0B AE 00 00 00 
   391)     19550.0  Rx         07DF  8  02 01 11 55 55 55 55 55 
   392)     19551.5  Rx         07E8  8  03 41 11 28 00 00 00 00 
   393)     19650.0  Rx         07DF  8  02 01 05 55 55 55 55 55 
   394)     19654.0  Rx         07E8  8  03 41 05 74 00 00 00 00 
   395)     19749.9  Rx         07DF  8  02 01 04 55 55 55 55 55 
   396)     19752.3  Rx         07E8  8  03 41 04 53 00 00 00 00 
   397)     19850.4  Rx         07DF  8  02 01 10 55 55 55 55 55 
   398)     19854.7  Rx         07E8  8  04 41 10 01 9A 00 00 00 
   399)     19949.9  Rx         07DF  8  02 01 0F 55 55 55 55 55 
   400)     19953.6  Rx         07E8  8  03 41 0F 3F 00 00 00 00 
   401)     20049.9  Rx         07DF  8  02 01 0D 55 55 55 55 55 
   402)     20051.3  Rx         07E8  8  03 41 0D 08 00 00 00 00 
   403)     20149.8  Rx         07DF  8  02 01 0C 55 55 55 55 55 
   404)     20153.7  Rx         07E8  8  04 41 0C 0B E6 00 00 00 
   405)     20249.8  Rx         07DF  8  02 01 11 55 55 55 55 55 
   406)     20252.2  Rx         07E8  8  03 41 11 28 00 00 00 00 
   407)     20350.7  Rx         07DF  8  02 01 05 55 55 55 55 55 
   408)     20354.4  Rx         07E8  8  03 41 05 74 00 00 00 00 
   409)     20449.8  Rx         07DF  8  02 01 04 55 55 55 55 55 
   410)     20453.1  Rx         07E8  8  03 41 04 53 00 00 00 00 
   411)     20549.8  Rx         07DF  8  02 01 10 55 55 55 55 55 
   412)     20555.7  Rx         07E8  8  04 41 10 01 65 00 00 00 
   413)     20649.8  Rx         07DF  8  02 01 0F 55 55 55 55 55 
   414)     20653.4  Rx         07E8  8  03 41 0F 3F 00 00 00 00 
   415)     20749.8  Rx         07DF  8  02 01 0D 55 55 55 55 55 
   416)     20751.7  Rx         07E8  8  03 41 0D 0A 00 00 00 00 
   417)     20850.3  Rx         07DF  8  02 01 0C 55 55 55 55 55 
   418)     20854.1  Rx         07E8  8  04 41 0C 0C C4 00 00 00 
   419)     20949.8  Rx         07DF  8  02 01 11 55 55 55 55 55 
   420)     20952.9  Rx         07E8  8  03 41 11 2B 00 00 00 00 
   421)     21049.9  Rx         07DF  8  02 01 05 55 55 55 55 55 
   422)     21055.3  Rx         07E8  8  03 41 05 74 00 00 00 00 
   423)     21149.8  Rx         07DF  8  02 01 04 55 55 55 55 55 
   424)     21153.1  Rx         07E8  8  03 41 04 61 00 00 00 00 
   425)     21249.8  Rx         07DF  8  02 01 10 55 55 55 55 55 
   426)     21251.5  Rx         07E8  8  04 41 10 03 71 00 00 00 
   427)     21350.6  Rx         07DF  8  02 01 0F 55 55 55 55 55 
   428)     21353.8  Rx         07E8  8  03 41 0F 3F 00 00 00 00 
   429)     21449.8  Rx         07DF  8  02 01 0D 55 55 55 55 55 
   430)     21452.4  Rx         07E8  8  03 41 0D 0A 00 00 00 00 
   431)     21549.9  Rx         07DF  8  02 01 0C 55 55 55 55 55 
   432)     21555.2  Rx         07E8  8  04 41 0C 13 CC 00 00 00 
   433)     21649.8  Rx         07DF  8  02 01 11 55 55 55 55 55 
   434)     21652.9  Rx         07E8  8  03 41 11 29 00 00 00 00 
   435)     21749.9  Rx         07DF  8  02 01 05 55 55 55 55 55 
   436)     21751.2  Rx         07E8  8  03 41 05 74 00 00 00 00 
   437)     21850.4  Rx         07DF  8  02 01 04 55 55 55 55 55 
   438)     21853.6  Rx         07E8  8  03 41 04 48 00 00 00 00 
   439)     21950.1  Rx         07DF  8  02 01 10 55 55 55 55 55 
   440)     21951.9  Rx         07E8  8  04 41 10 01 49 00 00 00 
   441)     22049.9  Rx         07DF  8  02 01 0F 55 55 55 55 55 
   442)     22054.3  Rx         07E8  8  03 41 0F 3F 00 00 00 00 
   443)     22149.9  Rx         07DF  8  02 01 0D 55 55 55 55 55 
   444)     22152.6  Rx         07E8  8  03 41 0D 0C 00 00 00 00 
   445)     22249.9  Rx         07DF  8  02 01 0C 55 55 55 55 55 
   446)     22255.0  Rx         07E8  8  04 41 0C 0E 74 00 00 00 
   447)     22351.0  Rx         07DF  8  02 01 11 55 55 55 55 55 
   448)     22353.3  Rx         07E8  8  03 41 11 2A 00 00 00 00 
   449)     22449.9  Rx         07DF  8  02 01 05 55 55 55 55 55 
   450)     22451.6  Rx         07E8  8  03 41 05 74 00 00 00 00 
   451)     22549.9  Rx         07DF  8  02 01 04 55 55 55 55 55 
   452)     22554.0  Rx         07E8  8  03 41 04 50 00 00 00 00 
   453)     22649.9  Rx         07DF  8  02 01 10 55 55 55 55 55 
   454)     22652.9  Rx         07E8  8  04 41 10 03 E6 00 00 00 
   455)     22749.9  Rx         07DF  8  02 01 0F 55 55 55 55 55 
   456)     22754.7  Rx         07E8  8  03 41 0F 3F 00 00 00 00 
   457)     22849.8  Rx         07DF  8  02 01 0D 55 55 55 55 55 
   458)     22853.2  Rx         07E8  8  03 41 0D 0E 00 00 00 00 
   459)     22949.9  Rx         07DF  8  02 01 0C 55 55 55 55 55 
   460)     22951.4  Rx         07E8  8  04 41 0C 11 B0 00 00 00 
   461)     23049.9  Rx         07DF  8  02 01 11 55 55 55 55 55 
   462)     23053.8  Rx         07E8  8  03 41 11 31 00 00 00 00 
   463)     23149.9  Rx         07DF  8  02 01 05 55 55 55 55 55 
   464)     23152.2  Rx         07E8  8  03 41 05 74 00 00 00 00 
   465)     23249.9  Rx         07DF  8  02 01 04 55 55 55 55 55 
   466)     23255.3  Rx         07E8  8  03 41 04 80 00 00 00 00 
   467)     23351.0  Rx         07DF  8  02 01 10 55 55 55 55 55 
   468)     23352.7  Rx         07E8  8  04 41 10 03 DE 00 00 00 
   469)     23449.8  Rx         07DF  8  02 01 0F 55 55 55 55 55 
   470)     23455.1  Rx         07E8  8  03 41 0F 3F 00 00 00 00 
   471)     23549.8  Rx         07DF  8  02 01 0D 55 55 55 55 55 
   472)     23553.7  Rx         07E8  8  03 41 0D 0E 00 00 00 00 
   473)     23649.8  Rx         07DF  8  02 01 0C 55 55 55 55 55 
   474)     23652.1  Rx         07E8  8  04 41 0C 12 D2 00 00 00 
   475)     23749.8  Rx         07DF  8  02 01 11 55 55 55 55 55 
   476)     23754.5  Rx         07E8  8  03 41 11 2F 00 00 00 00 
   477)     23849.8  Rx         07DF  8  02 01 05 55 55 55 55 55 
   478)     23852.4  Rx         07E8  8  03 41 05 74 00 00 00 00 
   479)     23949.8  Rx         07DF  8  02 01 04 55 55 55 55 55 
   480)     23954.9  Rx         07E8  8  03 41 04 79 00 00 00 00 
   481)     24049.8  Rx         07DF  8  02 01 10 55 55 55 55 55 
   482)     24053.2  Rx         07E8  8  04 41 10 04 AE 00 00 00 
   483)     24149.8  Rx         07DF  8  02 01 0F 55 55 55 55 55 
   484)     24151.7  Rx         07E8  8  03 41 0F 3F 00 00 00 00 
   485)     24249.8  Rx         07DF  8  02 01 0D 55 55 55 55 55 
   486)     24255.0  Rx         07E8  8  03 41 0D 10 00 00 00 00 
   487)     24349.8  Rx         07DF  8  02 01 0C 55 55 55 55 55 
   488)     24352.4  Rx         07E8  8  04 41 0C 13 65 00 00 00 
   489)     24449.7  Rx         07DF  8  02 01 11 55 55 55 55 55 
   490)     24454.7  Rx         07E8  8  03 41 11 2B 00 00 00 00 
   491)     24549.8  Rx         07DF  8  02 01 05 55 55 55 55 55 
   492)     24552.8  Rx         07E8  8  03 41 05 74 00 00 00 00 
   493)     24649.7  Rx         07DF  8  02 01 04 55 55 55 55 55 
   494)     24652.4  Rx         07E8  8  03 41 04 6A 00 00 00 00 
   495)     24749.7  Rx         07DF  8  02 01 10 55 55 55 55 55 
   496)     24754.2  Rx         07E8  8  04 41 10 02 05 00 00 00 
   497)     24849.7  Rx         07DF  8  02 01 0F 55 55 55 55 55 
   498)     24851.8  Rx         07E8  8  03 41 0F 3F 00 00 00 00 
   499)     24949.7  Rx         07DF  8  02 01 0D 55 55 55 55 55 
   500)     24954.2  Rx         07E8  8  03 41 0D 12 00 00 00 00 
   501)     25049.8  Rx         07DF  8  02 01 0C 55 55 55 55 55 
   502)     25052.6  Rx         07E8  8  04 41 0C 11 26 00 00 00 
   503)     25149.7  Rx         07DF  8  02 01 11 55 55 55 55 55 
   504)     25155.0  Rx         07E8  8  03 41 11 28 00 00 00 00 
   505)     25249.7  Rx         07DF  8  02 01 05 55 55 55 55 55 
   506)     25253.3  Rx         07E8  8  03 41 05 74 00 00 00 00 
   507)     25349.9  Rx         07DF  8  02 01 04 55 55 55 55 55 
   508)     25351.6  Rx         07E8  8  03 41 04 48 00 00 00 00 
   509)     25449.7  Rx         07DF  8  02 01 10 55 55 55 55 55 
   510)     25454.0  Rx         07E8  8  04 41 10 01 A5 00 00 00 
   511)     25549.8  Rx         07DF  8  02 01 0F 55 55 55 55 55 
   512)     25552.3  Rx         07E8  8  03 41 0F 3F 00 00 00 00 
   513)     25649.7  Rx         07DF  8  02 01 0D 55 55 55 55 55 
   514)     25654.7  Rx         07E8  8  03 41 0D 12 00 00 00 00 
   515)     25749.8  Rx         07DF  8  02 01 0C 55 55 55 55 55 
   516)     25753.0  Rx         07E8  8  04 41 0C 10 23 00 00 00 
   517)     25849.7  Rx         07DF  8  02 01 11 55 55 55 55 55 
   518)     25851.3  Rx         07E8  8  03 41 11 29 00 00 00 00 
   519)     25949.8  Rx         07DF  8  02 01 05 55 55 55 55 55 
   520)     25954.2  Rx         07E8  8  03 41 05 75 00 00 00 00 
   521)     26050.0  Rx         07DF  8  02 01 04 55 55 55 55 55 
   522)     26052.1  Rx         07E8  8  03 41 04 49 00 00 00 00 
   523)     26149.7  Rx         07DF  8  02 01 10 55 55 55 55 55 
   524)     26154.5  Rx         07E8  8  04 41 10 01 A1 00 00 00 
   525)     26249.8  Rx         07DF  8  02 01 0F 55 55 55 55 55 
   526)     26252.8  Rx         07E8  8  03 41 0F 3F 00 00 00 00 
   527)     26349.7  Rx         07DF  8  02 01 0D 55 55 55 55 55 
   528)     26351.2  Rx         07E8  8  03 41 0D 12 00 00 00 00 
   529)     26449.8  Rx         07DF  8  02 01 0C 55 55 55 55 55 
   530)     26453.5  Rx         07E8  8  04 41 0C 0F 71 00 00 00 
   531)     26549.7  Rx         07DF  8  02 01 11 55 55 55 55 55 
   532)     26551.7  Rx         07E8  8  03 41 11 29 00 00 00 00 
   533)     26649.7  Rx         07DF  8  02 01 05 55 55 55 55 55 
   534)     26654.1  Rx         07E8  8  03 41 05 75 00 00 00 00 
   535)     26749.7  Rx         07DF  8  02 01 04 55 55 55 55 55 
   536)     26752.4  Rx         07E8  8  03 41 04 4B 00 00 00 00 
   537)     26849.7  Rx         07DF  8  02 01 10 55 55 55 55 55 
   538)     26855.1  Rx         07E8  8  04 41 10 01 9A 00 00 00 
   539)     26949.7  Rx         07DF  8  02 01 0F 55 55 55 55 55 
   540)     26953.6  Rx         07E8  8  03 41 0F 3F 00 00 00 00 
   541)     27049.9  Rx         07DF  8  02 01 0D 55 55 55 55 55 
   542)     27051.4  Rx         07E8  8  03 41 0D 12 00 00 00 00 
   543)     27149.7  Rx         07DF  8  02 01 0C 55 55 55 55 55 
   544)     27153.9  Rx         07E8  8  04 41 0C 0D E4 00 00 00 
   545)     27249.7  Rx         07DF  8  02 01 11 55 55 55 55 55 
   546)     27252.2  Rx         07E8  8  03 41 11 29 00 00 00 00 
   547)     27349.7  Rx         07DF  8  02 01 05 55 55 55 55 55 
   548)     27354.6  Rx         07E8  8  03 41 05 75 00 00 00 00 
   549)     27449.7  Rx         07DF  8  02 01 04 55 55 55 55 55 
   550)     27453.4  Rx         07E8  8  03 41 04 4F 00 00 00 00 
   551)     27549.8  Rx         07DF  8  02 01 10 55 55 55 55 55 
   552)     27551.2  Rx         07E8  8  04 41 10 01 91 00 00 00 
   553)     27649.8  Rx         07DF  8  02 01 0F 55 55 55 55 55 
   554)     27653.7  Rx         07E8  8  03 41 0F 3F 00 00 00 00 
   555)     27749.8  Rx         07DF  8  02 01 0D 55 55 55 55 55 
   556)     27752.1  Rx         07E8  8  03 41 0D 11 00 00 00 00 
   557)     27849.7  Rx         07DF  8  02 01 0C 55 55 55 55 55 
   558)     27854.4  Rx         07E8  8  04 41 0C 0B F0 00 00 00 
   559)     27949.8  Rx         07DF  8  02 01 11 55 55 55 55 55 
   560)     27953.8  Rx         07E8  8  03 41 11 28 00 00 00 00 
   561)     28050.1  Rx         07DF  8  02 01 05 55 55 55 55 55 
   562)     28055.4  Rx         07E8  8  03 41 05 75 00 00 00 00 
   563)     28149.8  Rx         07DF  8  02 01 04 55 55 55 55 55 
   564)     28153.4  Rx         07E8  8  03 41 04 52 00 00 00 00 
   565)     28249.8  Rx         07DF  8  02 01 10 55 55 55 55 55 
   566)     28252.0  Rx         07E8  8  04 41 10 01 4F 00 00 00 
   567)     28349.8  Rx         07DF  8  02 01 0F 55 55 55 55 55 
   568)     28354.1  Rx         07E8  8  03 41 0F 3F 00 00 00 00 
   569)     28449.8  Rx         07DF  8  02 01 0D 55 55 55 55 55 
   570)     28453.3  Rx         07E8  8  03 41 0D 0D 00 00 00 00 
   571)     28549.8  Rx         07DF  8  02 01 0C 55 55 55 55 55 
   572)     28554.8  Rx         07E8  8  04 41 0C 0B 8C 00 00 00 
   573)     28649.7  Rx         07DF  8  02 01 11 55 55 55 55 55 
   574)     28653.1  Rx         07E8  8  03 41 11 28 00 00 00 00 
   575)     28749.7  Rx         07DF  8  02 01 05 55 55 55 55 55 
   576)     28751.4  Rx         07E8  8  03 41 05 75 00 00 00 00 
   577)     28849.7  Rx         07DF  8  02 01 04 55 55 55 55 55 
   578)     28853.8  Rx         07E8  8  03 41 04 52 00 00 00 00 
   579)     28949.7  Rx         07DF  8  02 01 10 55 55 55 55 55 
   580)     28952.1  Rx         07E8  8  04 41 10 01 62 00 00 00 
   581)     29049.8  Rx         07DF  8  02 01 0F 55 55 55 55 55 
   582)     29054.5  Rx         07E8  8  03 41 0F 3F 00 00 00 00 
   583)     29149.7  Rx         07DF  8  02 01 0D 55 55 55 55 55 
   584)     29152.9  Rx         07E8  8  03 41 0D 0B 00 00 00 00 
   585)     29249.7  Rx         07DF  8  02 01 0C 55 55 55 55 55 
   586)     29251.4  Rx         07E8  8  04 41 0C 0A EC 00 00 00 
   587)     29349.8  Rx         07DF  8  02 01 11 55 55 55 55 55 
   588)     29353.7  Rx         07E8  8  03 41 11 28 00 00 00 00 
   589)     29449.8  Rx         07DF  8  02 01 05 55 55 55 55 55 
   590)     29451.9  Rx         07E8  8  03 41 05 75 00 00 00 00 
   591)     29549.8  Rx         07DF  8  02 01 04 55 55 55 55 55 
   592)     29554.3  Rx         07E8  8  03 41 04 56 00 00 00 00 
   593)     29649.6  Rx         07DF  8  02 01 10 55 55 55 55 55 
   594)     29652.7  Rx         07E8  8  04 41 10 01 4B 00 00 00 
   595)     29749.7  Rx         07DF  8  02 01 0F 55 55 55 55 55 
   596)     29754.9  Rx         07E8  8  03 41 0F 3F 00 00 00 00 
   597)     29849.7  Rx         07DF  8  02 01 0D 55 55 55 55 55 
   598)     29853.2  Rx         07E8  8  03 41 0D 07 00 00 00 00 
   599)     29949.7  Rx         07DF  8  02 01 0C 55 55 55 55 55 
   600)     29951.5  Rx         07E8  8  04 41 0C 0A 1E 00 00 00 
   601)     30050.1  Rx         07DF  8  02 01 11 55 55 55 55 55 
   602)     30053.9  Rx         07E8  8  03 41 11 29 00 00 00 00 
   603)     30149.6  Rx         07DF  8  02 01 05 55 55 55 55 55 
   604)     30152.2  Rx         07E8  8  03 41 05 75 00 00 00 00 
   605)     30249.7  Rx         07DF  8  02 01 04 55 55 55 55 55 
   606)     30255.3  Rx         07E8  8  03 41 04 60 00 00 00 00 
   607)     30349.7  Rx         07DF  8  02 01 10 55 55 55 55 55 
   608)     30352.9  Rx         07E8  8  04 41 10 02 C5 00 00 00 
   609)     30449.7  Rx         07DF  8  02 01 0F 55 55 55 55 55 
   610)     30451.3  Rx         07E8  8  03 41 0F 3F 00 00 00 00 
   611)     30549.9  Rx         07DF  8  02 01 0D 55 55 55 55 55 
   612)     30553.6  Rx         07E8  8  03 41 0D 06 00 00 00 00 
   613)     30649.7  Rx         07DF  8  02 01 0C 55 55 55 55 55 
   614)     30652.5  Rx         07E8  8  04 41 0C 0E 6A 00 00 00 
   615)     30749.6  Rx         07DF  8  02 01 11 55 55 55 55 55 
   616)     30754.3  Rx         07E8  8  03 41 11 2E 00 00 00 00 
   617)     30849.6  Rx         07DF  8  02 01 05 55 55 55 55 55 
   618)     30852.9  Rx         07E8  8  03 41 05 75 00 00 00 00 
   619)     30949.6  Rx         07DF  8  02 01 04 55 55 55 55 55 
   620)     30950.9  Rx         07E8  8  03 41 04 73 00 00 00 00 
   621)     31050.1  Rx         07DF  8  02 01 10 55 55 55 55 55 
   622)     31053.3  Rx         07E8  8  04 41 10 03 4D 00 00 00 
   623)     31149.6  Rx         07DF  8  02 01 0F 55 55 55 55 55 
   624)     31152.5  Rx         07E8  8  03 41 0F 3F 00 00 00 00 
   625)     31249.6  Rx         07DF  8  02 01 0D 55 55 55 55 55 
   626)     31255.6  Rx         07E8  8  03 41 0D 06 00 00 00 00 
   627)     31349.6  Rx         07DF  8  02 01 0C 55 55 55 55 55 
   628)     31352.3  Rx         07E8  8  04 41 0C 10 A3 00 00 00 
   629)     31449.7  Rx         07DF  8  02 01 11 55 55 55 55 55 
   630)     31454.7  Rx         07E8  8  03 41 11 2F 00 00 00 00 
   631)     31549.8  Rx         07DF  8  02 01 05 55 55 55 55 55 
   632)     31553.3  Rx         07E8  8  03 41 05 75 00 00 00 00 
   633)     31649.6  Rx         07DF  8  02 01 04 55 55 55 55 55 
   634)     31651.3  Rx         07E8  8  03 41 04 76 00 00 00 00 
   635)     31749.7  Rx         07DF  8  02 01 10 55 55 55 55 55 
   636)     31754.0  Rx         07E8  8  04 41 10 03 99 00 00 00 
   637)     31849.6  Rx         07DF  8  02 01 0F 55 55 55 55 55 
   638)     31852.1  Rx         07E8  8  03 41 0F 3F 00 00 00 00 
   639)     31949.6  Rx         07DF  8  02 01 0D 55 55 55 55 55 
   640)     31954.5  Rx         07E8  8  03 41 0D 06 00 00 00 00 
   641)     32050.1  Rx         07DF  8  02 01 0C 55 55 55 55 55 
   642)     32052.8  Rx         07E8  8  04 41 0C 12 20 00 00 00 
   643)     32149.6  Rx         07DF  8  02 01 11 55 55 55 55 55 
   644)     32151.1  Rx         07E8  8  03 41 11 2E 00 00 00 00 
   645)     32249.7  Rx         07DF  8  02 01 05 55 55 55 55 55 
   646)     32253.5  Rx         07E8  8  03 41 05 75 00 00 00 00 
   647)     32349.6  Rx         07DF  8  02 01 04 55 55 55 55 55 
   648)     32351.8  Rx         07E8  8  03 41 04 73 00 00 00 00 
   649)     32449.6  Rx         07DF  8  02 01 10 55 55 55 55 55 
   650)     32454.5  Rx         07E8  8  04 41 10 02 A9 00 00 00 
   651)     32550.0  Rx         07DF  8  02 01 0F 55 55 55 55 55 
   652)     32552.5  Rx         07E8  8  03 41 0F 3E 00 00 00 00 
   653)     32649.6  Rx         07DF  8  02 01 0D 55 55 55 55 55 
   654)     32654.9  Rx         07E8  8  03 41 0D 0A 00 00 00 00 
   655)     32749.7  Rx         07DF  8  02 01 0C 55 55 55 55 55 
   656)     32753.2  Rx         07E8  8  04 41 0C 13 5C 00 00 00 
   657)     32849.6  Rx         07DF  8  02 01 11 55 55 55 55 55 
   658)     32851.5  Rx         07E8  8  03 41 11 2C 00 00 00 00 
   659)     32949.6  Rx         07DF  8  02 01 05 55 55 55 55 55 
   660)     32954.1  Rx         07E8  8  03 41 05 75 00 00 00 00 
   661)     33050.4  Rx         07DF  8  02 01 04 55 55 55 55 55 
   662)     33052.2  Rx         07E8  8  03 41 04 5C 00 00 00 00 
   663)     33149.6  Rx         07DF  8  02 01 10 55 55 55 55 55 
   664)     33154.6  Rx         07E8  8  04 41 10 03 AF 00 00 00 
   665)     33249.6  Rx         07DF  8  02 01 0F 55 55 55 55 55 
   666)     33252.9  Rx         07E8  8  03 41 0F 3E 00 00 00 00 
   667)     33349.6  Rx         07DF  8  02 01 0D 55 55 55 55 55 
   668)     33351.6  Rx         07E8  8  03 41 0D 0C 00 00 00 00 
   669)     33449.6  Rx         07DF  8  02 01 0C 55 55 55 55 55 
   670)     33453.6  Rx         07E8  8  04 41 0C 15 AA 00 00 00 
   671)     33549.9  Rx         07DF  8  02 01 11 55 55 55 55 55 
   672)     33552.0  Rx         07E8  8  03 41 11 2E 00 00 00 00 
   673)     33649.6  Rx         07DF  8  02 01 05 55 55 55 55 55 
   674)     33654.4  Rx         07E8  8  03 41 05 76 00 00 00 00 
   675)     33749.8  Rx         07DF  8  02 01 04 55 55 55 55 55 
   676)     33752.7  Rx         07E8  8  03 41 04 5A 00 00 00 00 
   677)     33849.5  Rx         07DF  8  02 01 10 55 55 55 55 55 
   678)     33851.1  Rx         07E8  8  04 41 10 03 C4 00 00 00 
   679)     33949.6  Rx         07DF  8  02 01 0F 55 55 55 55 55 
   680)     33954.2  Rx         07E8  8  03 41 0F 3E 00 00 00 00 
   681)     34050.4  Rx         07DF  8  02 01 0D 55 55 55 55 55 
   682)     34056.3  Rx         07E8  8  03 41 0D 0C 00 00 00 00 
   683)     34149.5  Rx         07DF  8  02 01 0C 55 55 55 55 55 
   684)     34154.1  Rx         07E8  8  04 41 0C 19 38 00 00 00 
   685)     34249.6  Rx         07DF  8  02 01 11 55 55 55 55 55 
   686)     34252.5  Rx         07E8  8  03 41 11 34 00 00 00 00 
   687)     34349.5  Rx         07DF  8  02 01 05 55 55 55 55 55 
   688)     34354.8  Rx         07E8  8  03 41 05 76 00 00 00 00 
   689)     34449.6  Rx         07DF  8  02 01 04 55 55 55 55 55 
   690)     34453.6  Rx         07E8  8  03 41 04 7B 00 00 00 00 
   691)     34549.9  Rx         07DF  8  02 01 10 55 55 55 55 55 
   692)     34551.4  Rx         07E8  8  04 41 10 07 49 00 00 00 
   693)     34649.5  Rx         07DF  8  02 01 0F 55 55 55 55 55 
   694)     34653.8  Rx         07E8  8  03 41 0F 3E 00 00 00 00 
   695)     34749.6  Rx         07DF  8  02 01 0D 55 55 55 55 55 
   696)     34752.1  Rx         07E8  8  03 41 0D 0E 00 00 00 00 
   697)     34849.5  Rx         07DF  8  02 01 0C 55 55 55 55 55 
   698)     34854.8  Rx         07E8  8  04 41 0C 17 9B 00 00 00 
   699)     34949.5  Rx         07DF  8  02 01 11 55 55 55 55 55 
   700)     34952.7  Rx         07E8  8  03 41 11 36 00 00 00 00 
   701)     35050.1  Rx         07DF  8  02 01 05 55 55 55 55 55 
   702)     35056.5  Rx         07E8  8  03 41 05 76 00 00 00 00 
   703)     35149.5  Rx         07DF  8  02 01 04 55 55 55 55 55 
   704)     35153.4  Rx         07E8  8  03 41 04 9D 00 00 00 00 
   705)     35249.5  Rx         07DF  8  02 01 10 55 55 55 55 55 
   706)     35251.7  Rx         07E8  8  04 41 10 05 EA 00 00 00 
   707)     35349.5  Rx         07DF  8  02 01 0F 55 55 55 55 55 
   708)     35354.1  Rx         07E8  8  03 41 0F 3D 00 00 00 00 
   709)     35449.5  Rx         07DF  8  02 01 0D 55 55 55 55 55 
   710)     35452.6  Rx         07E8  8  03 41 0D 13 00 00 00 00 
   711)     35549.9  Rx         07DF  8  02 01 0C 55 55 55 55 55 
   712)     35554.8  Rx         07E8  8  04 41 0C 16 FC 00 00 00 
   713)     35649.5  Rx         07DF  8  02 01 11 55 55 55 55 55 
   714)     35653.2  Rx         07E8  8  03 41 11 33 00 00 00 00 
   715)     35749.5  Rx         07DF  8  02 01 05 55 55 55 55 55 
   716)     35751.7  Rx         07E8  8  03 41 05 76 00 00 00 00 
   717)     35849.5  Rx         07DF  8  02 01 04 55 55 55 55 55 
   718)     35854.0  Rx         07E8  8  03 41 04 91 00 00 00 00 
   719)     35949.5  Rx         07DF  8  02 01 10 55 55 55 55 55 
   720)     35952.5  Rx         07E8  8  04 41 10 06 36 00 00 00 
   721)     36050.9  Rx         07DF  8  02 01 0F 55 55 55 55 55 
   722)     36054.6  Rx         07E8  8  03 41 0F 3D 00 00 00 00 
   723)     36149.5  Rx         07DF  8  02 01 0D 55 55 55 55 55 
   724)     36152.9  Rx         07E8  8  03 41 0D 16 00 00 00 00 
   725)     36249.6  Rx         07DF  8  02 01 0C 55 55 55 55 55 
   726)     36251.5  Rx         07E8  8  04 41 0C 18 CA 00 00 00 
   727)     36349.5  Rx         07DF  8  02 01 11 55 55 55 55 55 
   728)     36353.7  Rx         07E8  8  03 41 11 32 00 00 00 00 
   729)     36449.5  Rx         07DF  8  02 01 05 55 55 55 55 55 
   730)     36452.2  Rx         07E8  8  03 41 05 76 00 00 00 00 
   731)     36549.8  Rx         07DF  8  02 01 04 55 55 55 55 55 
   732)     36554.5  Rx         07E8  8  03 41 04 8A 00 00 00 00 
   733)     36649.6  Rx         07DF  8  02 01 10 55 55 55 55 55 
   734)     36652.7  Rx         07E8  8  04 41 10 05 98 00 00 00 
   735)     36749.6  Rx         07DF  8  02 01 0F 55 55 55 55 55 
   736)     36751.0  Rx         07E8  8  03 41 0F 3D 00 00 00 00 
   737)     36849.5  Rx         07DF  8  02 01 0D 55 55 55 55 55 
   738)     36853.4  Rx         07E8  8  03 41 0D 1A 00 00 00 00 
   739)     36949.5  Rx         07DF  8  02 01 0C 55 55 55 55 55 
   740)     36951.7  Rx         07E8  8  04 41 0C 16 18 00 00 00 
   741)     37050.1  Rx         07DF  8  02 01 11 55 55 55 55 55 
   742)     37054.3  Rx         07E8  8  03 41 11 32 00 00 00 00 
   743)     37149.5  Rx         07DF  8  02 01 05 55 55 55 55 55 
   744)     37152.4  Rx         07E8  8  03 41 05 76 00 00 00 00 
   745)     37249.5  Rx         07DF  8  02 01 04 55 55 55 55 55 
   746)     37255.1  Rx         07E8  8  03 41 04 8E 00 00 00 00 
   747)     37349.5  Rx         07DF  8  02 01 10 55 55 55 55 55 
   748)     37353.3  Rx         07E8  8  04 41 10 06 2A 00 00 00 
   749)     37449.5  Rx         07DF  8  02 01 0F 55 55 55 55 55 
   750)     37451.4  Rx         07E8  8  03 41 0F 3D 00 00 00 00 
   751)     37549.6  Rx         07DF  8  02 01 0D 55 55 55 55 55 
   752)     37553.8  Rx         07E8  8  03 41 0D 1A 00 00 00 00 
   753)     37649.5  Rx         07DF  8  02 01 0C 55 55 55 55 55 
   754)     37652.7  Rx         07E8  8  04 41 0C 16 3A 00 00 00 
   755)     37749.5  Rx         07DF  8  02 01 11 55 55 55 55 55 
   756)     37754.6  Rx         07E8  8  03 41 11 33 00 00 00 00 
   757)     37849.5  Rx         07DF  8  02 01 05 55 55 55 55 55 
   758)     37852.8  Rx         07E8  8  03 41 05 76 00 00 00 00 
   759)     37949.5  Rx         07DF  8  02 01 04 55 55 55 55 55 
   760)     37951.1  Rx         07E8  8  03 41 04 91 00 00 00 00 
   761)     38050.2  Rx         07DF  8  02 01 10 55 55 55 55 55 
   762)     38053.5  Rx         07E8  8  04 41 10 05 A6 00 00 00 
   763)     38149.5  Rx         07DF  8  02 01 0F 55 55 55 55 55 
   764)     38152.2  Rx         07E8  8  03 41 0F 3D 00 00 00 00 
   765)     38249.5  Rx         07DF  8  02 01 0D 55 55 55 55 55 
   766)     38254.7  Rx         07E8  8  03 41 0D 1E 00 00 00 00 
   767)     38349.5  Rx         07DF  8  02 01 0C 55 55 55 55 55 
   768)     38352.6  Rx         07E8  8  04 41 0C 15 6C 00 00 00 
   769)     38449.5  Rx         07DF  8  02 01 11 55 55 55 55 55 
   770)     38450.9  Rx         07E8  8  03 41 11 2F 00 00 00 00 
   771)     38549.7  Rx         07DF  8  02 01 05 55 55 55 55 55 
   772)     38553.3  Rx         07E8  8  03 41 05 76 00 00 00 00 
   773)     38649.5  Rx         07DF  8  02 01 04 55 55 55 55 55 
   774)     38652.5  Rx         07E8  8  03 41 04 7B 00 00 00 00 
   775)     38749.5  Rx         07DF  8  02 01 10 55 55 55 55 55 
   776)     38754.5  Rx         07E8  8  04 41 10 03 C7 00 00 00 
   777)     38849.5  Rx         07DF  8  02 01 0F 55 55 55 55 55 
   778)     38852.4  Rx         07E8  8  03 41 0F 3C 00 00 00 00 
   779)     38949.5  Rx         07DF  8  02 01 0D 55 55 55 55 55 
   780)     38955.0  Rx         07E8  8  03 41 0D 1E 00 00 00 00 
   781)     39050.2  Rx         07DF  8  02 01 0C 55 55 55 55 55 
   782)     39053.0  Rx         07E8  8  04 41 0C 11 90 00 00 00 
   783)     39149.4  Rx         07DF  8  02 01 11 55 55 55 55 55 
   784)     39151.4  Rx         07E8  8  03 41 11 2C 00 00 00 00 
   785)     39249.4  Rx         07DF  8  02 01 05 55 55 55 55 55 
   786)     39253.9  Rx         07E8  8  03 41 05 76 00 00 00 00 
   787)     39349.5  Rx         07DF  8  02 01 04 55 55 55 55 55 
   788)     39352.0  Rx         07E8  8  03 41 04 6C 00 00 00 00 
   789)     39449.5  Rx         07DF  8  02 01 10 55 55 55 55 55 
   790)     39454.4  Rx         07E8  8  04 41 10 02 85 00 00 00 
   791)     39549.8  Rx         07DF  8  02 01 0F 55 55 55 55 55 
   792)     39552.9  Rx         07E8  8  03 41 0F 3D 00 00 00 00 
   793)     39649.4  Rx         07DF  8  02 01 0D 55 55 55 55 55 
   794)     39651.0  Rx         07E8  8  03 41 0D 20 00 00 00 00 
   795)     39749.5  Rx         07DF  8  02 01 0C 55 55 55 55 55 
   796)     39753.6  Rx         07E8  8  04 41 0C 0E CB 00 00 00 
   797)     39849.5  Rx         07DF  8  02 01 11 55 55 55 55 55 
   798)     39851.7  Rx         07E8  8  03 41 11 28 00 00 00 00 
   799)     39949.5  Rx         07DF  8  02 01 05 55 55 55 55 55 
   800)     39954.2  Rx         07E8  8  03 41 05 76 00 00 00 00 
   801)     40050.4  Rx         07DF  8  02 01 04 55 55 55 55 55 
   802)     40052.6  Rx         07E8  8  03 41 04 56 00 00 00 00 
   803)     40149.4  Rx         07DF  8  02 01 10 55 55 55 55 55 
   804)     40154.8  Rx         07E8  8  04 41 10 01 62 00 00 00 
   805)     40249.4  Rx         07DF  8  02 01 0F 55 55 55 55 55 
   806)     40253.1  Rx         07E8  8  03 41 0F 3D 00 00 00 00 
   807)     40349.4  Rx         07DF  8  02 01 0D 55 55 55 55 55 
   808)     40351.5  Rx         07E8  8  03 41 0D 20 00 00 00 00 
   809)     40449.4  Rx         07DF  8  02 01 0C 55 55 55 55 55 
   810)     40453.8  Rx         07E8  8  04 41 0C 0D 9F 00 00 00 
   811)     40550.0  Rx         07DF  8  02 01 11 55 55 55 55 55 
   812)     40552.1  Rx         07E8  8  03 41 11 28 00 00 00 00 
   813)     40649.4  Rx         07DF  8  02 01 05 55 55 55 55 55 
   814)     40654.5  Rx         07E8  8  03 41 05 76 00 00 00 00 
   815)     40749.5  Rx         07DF  8  02 01 04 55 55 55 55 55 
   816)     40753.0  Rx         07E8  8  03 41 04 4C 00 00 00 00 
   817)     40849.4  Rx         07DF  8  02 01 10 55 55 55 55 55 
   818)     40851.4  Rx         07E8  8  04 41 10 01 61 00 00 00 
   819)     40949.7  Rx         07DF  8  02 01 0F 55 55 55 55 55 
   820)     40953.9  Rx         07E8  8  03 41 0F 3D 00 00 00 00 
   821)     41049.5  Rx         07DF  8  02 01 0D 55 55 55 55 55 
   822)     41051.9  Rx         07E8  8  03 41 0D 20 00 00 00 00 
   823)     41149.5  Rx         07DF  8  02 01 0C 55 55 55 55 55 
   824)     41154.3  Rx         07E8  8  04 41 0C 0D 9F 00 00 00 
   825)     41249.4  Rx         07DF  8  02 01 11 55 55 55 55 55 
   826)     41252.5  Rx         07E8  8  03 41 11 28 00 00 00 00 
   827)     41349.4  Rx         07DF  8  02 01 05 55 55 55 55 55 
   828)     41351.8  Rx         07E8  8  03 41 05 76 00 00 00 00 
   829)     41449.4  Rx         07DF  8  02 01 04 55 55 55 55 55 
   830)     41453.7  Rx         07E8  8  03 41 04 4A 00 00 00 00 
   831)     41549.4  Rx         07DF  8  02 01 10 55 55 55 55 55 
   832)     41551.5  Rx         07E8  8  04 41 10 01 5E 00 00 00 
   833)     41649.4  Rx         07DF  8  02 01 0F 55 55 55 55 55 
   834)     41653.9  Rx         07E8  8  03 41 0F 3D 00 00 00 00 
   835)     41749.4  Rx         07DF  8  02 01 0D 55 55 55 55 55 
   836)     41752.2  Rx         07E8  8  03 41 0D 22 00 00 00 00 
   837)     41849.4  Rx         07DF  8  02 01 0C 55 55 55 55 55 
   838)     41854.6  Rx         07E8  8  04 41 0C 0D A2 00 00 00 
   839)     41949.4  Rx         07DF  8  02 01 11 55 55 55 55 55 
   840)     41952.9  Rx         07E8  8  03 41 11 28 00 00 00 00 
   841)     42049.4  Rx         07DF  8  02 01 05 55 55 55 55 55 
   842)     42051.3  Rx         07E8  8  03 41 05 76 00 00 00 00 
   843)     42149.4  Rx         07DF  8  02 01 04 55 55 55 55 55 
   844)     42153.7  Rx         07E8  8  03 41 04 4B 00 00 00 00 
   845)     42249.4  Rx         07DF  8  02 01 10 55 55 55 55 55 
   846)     42252.2  Rx         07E8  8  04 41 10 01 73 00 00 00 
   847)     42349.4  Rx         07DF  8  02 01 0F 55 55 55 55 55 
   848)     42354.5  Rx         07E8  8  03 41 0F 3D 00 00 00 00 
   849)     42449.4  Rx         07DF  8  02 01 0D 55 55 55 55 55 
   850)     42452.7  Rx         07E8  8  03 41 0D 21 00 00 00 00 
   851)     42549.4  Rx         07DF  8  02 01 0C 55 55 55 55 55 
   852)     42551.0  Rx         07E8  8  04 41 0C 0D D7 00 00 00 
   853)     42649.4  Rx         07DF  8  02 01 11 55 55 55 55 55 
   854)     42653.4  Rx         07E8  8  03 41 11 28 00 00 00 00 
   855)     42749.5  Rx         07DF  8  02 01 05 55 55 55 55 55 
   856)     42751.7  Rx         07E8  8  03 41 05 76 00 00 00 00 
   857)     42849.4  Rx         07DF  8  02 01 04 55 55 55 55 55 
   858)     42854.6  Rx         07E8  8  03 41 04 4B 00 00 00 00 
   859)     42949.6  Rx         07DF  8  02 01 10 55 55 55 55 55 
   860)     42952.4  Rx         07E8  8  04 41 10 01 6A 00 00 00 
   861)     43049.4  Rx         07DF  8  02 01 0F 55 55 55 55 55 
   862)     43050.7  Rx         07E8  8  03 41 0F 3D 00 00 00 00 
   863)     43149.4  Rx         07DF  8  02 01 0D 55 55 55 55 55 
   864)     43153.2  Rx         07E8  8  03 41 0D 21 00 00 00 00 
   865)     43249.5  Rx         07DF  8  02 01 0C 55 55 55 55 55 
   866)     43251.5  Rx         07E8  8  04 41 0C 0D BB 00 00 00 
   867)     43349.4  Rx         07DF  8  02 01 11 55 55 55 55 55 
   868)     43353.8  Rx         07E8  8  03 41 11 28 00 00 00 00 
   869)     43449.4  Rx         07DF  8  02 01 05 55 55 55 55 55 
   870)     43452.1  Rx         07E8  8  03 41 05 77 00 00 00 00 
   871)     43549.3  Rx         07DF  8  02 01 04 55 55 55 55 55 
   872)     43554.5  Rx         07E8  8  03 41 04 4B 00 00 00 00 
   873)     43649.3  Rx         07DF  8  02 01 10 55 55 55 55 55 
   874)     43653.2  Rx         07E8  8  04 41 10 01 6F 00 00 00 
   875)     43749.3  Rx         07DF  8  02 01 0F 55 55 55 55 55 
   876)     43751.1  Rx         07E8  8  03 41 0F 3E 00 00 00 00 
   877)     43849.4  Rx         07DF  8  02 01 0D 55 55 55 55 55 
   878)     43853.8  Rx         07E8  8  03 41 0D 22 00 00 00 00 
   879)     43949.4  Rx         07DF  8  02 01 0C 55 55 55 55 55 
   880)     43952.1  Rx         07E8  8  04 41 0C 0D D4 00 00 00 
   881)     44049.3  Rx         07DF  8  02 01 11 55 55 55 55 55 
   882)     44054.2  Rx         07E8  8  03 41 11 28 00 00 00 00 
   883)     44149.3  Rx         07DF  8  02 01 05 55 55 55 55 55 
   884)     44152.7  Rx         07E8  8  03 41 05 77 00 00 00 00 
   885)     44249.4  Rx         07DF  8  02 01 04 55 55 55 55 55 
   886)     44251.1  Rx         07E8  8  03 41 04 4C 00 00 00 00 
   887)     44349.3  Rx         07DF  8  02 01 10 55 55 55 55 55 
   888)     44353.2  Rx         07E8  8  04 41 10 01 78 00 00 00 
   889)     44449.3  Rx         07DF  8  02 01 0F 55 55 55 55 55 
   890)     44451.7  Rx         07E8  8  03 41 0F 3E 00 00 00 00 
   891)     44549.3  Rx         07DF  8  02 01 0D 55 55 55 55 55 
   892)     44554.1  Rx         07E8  8  03 41 0D 21 00 00 00 00 
   893)     44649.2  Rx         07DF  8  02 01 0C 55 55 55 55 55 
   894)     44653.3  Rx         07E8  8  04 41 0C 0D 12 00 00 00 
   895)     44749.8  Rx         07DF  8  02 01 11 55 55 55 55 55 
   896)     44755.3  Rx         07E8  8  03 41 11 28 00 00 00 00 
   897)     44849.3  Rx         07DF  8  02 01 05 55 55 55 55 55 
   898)     44852.9  Rx         07E8  8  03 41 05 77 00 00 00 00 
   899)     44949.4  Rx         07DF  8  02 01 04 55 55 55 55 55 
   900)     44951.2  Rx         07E8  8  03 41 04 4C 00 00 00 00 
   901)     45049.3  Rx         07DF  8  02 01 10 55 55 55 55 55 
   902)     45053.6  Rx         07E8  8  04 41 10 01 61 00 00 00 
   903)     45149.3  Rx         07DF  8  02 01 0F 55 55 55 55 55 
   904)     45151.9  Rx         07E8  8  03 41 0F 3E 00 00 00 00 
   905)     45249.3  Rx         07DF  8  02 01 0D 55 55 55 55 55 
   906)     45254.4  Rx         07E8  8  03 41 0D 21 00 00 00 00 
   907)     45349.3  Rx         07DF  8  02 01 0C 55 55 55 55 55 
   908)     45352.7  Rx         07E8  8  04 41 0C 0C 8C 00 00 00 
   909)     45449.3  Rx         07DF  8  02 01 11 55 55 55 55 55 
   910)     45451.0  Rx         07E8  8  03 41 11 28 00 00 00 00 
   911)     45549.6  Rx         07DF  8  02 01 05 55 55 55 55 55 
   912)     45553.4  Rx         07E8  8  03 41 05 77 00 00 00 00 
   913)     45649.3  Rx         07DF  8  02 01 04 55 55 55 55 55 
   914)     45651.8  Rx         07E8  8  03 41 04 4E 00 00 00 00 
   915)     45749.7  Rx         07DF  8  02 01 10 55 55 55 55 55 
   916)     45754.1  Rx         07E8  8  04 41 10 01 59 00 00 00 
   917)     45849.3  Rx         07DF  8  02 01 0F 55 55 55 55 55 
   918)     45852.4  Rx         07E8  8  03 41 0F 3E 00 00 00 00 
   919)     45949.3  Rx         07DF  8  02 01 0D 55 55 55 55 55 
   920)     45950.7  Rx         07E8  8  03 41 0D 1F 00 00 00 00 
   921)     46049.3  Rx         07DF  8  02 01 0C 55 55 55 55 55 
   922)     46053.1  Rx         07E8  8  04 41 0C 0C 47 00 00 00 
   923)     46149.4  Rx         07DF  8  02 01 11 55 55 55 55 55 
   924)     46151.4  Rx         07E8  8  03 41 11 2A 00 00 00 00 
   925)     46249.5  Rx         07DF  8  02 01 05 55 55 55 55 55 
   926)     46253.9  Rx         07E8  8  03 41 05 77 00 00 00 00 
   927)     46349.3  Rx         07DF  8  02 01 04 55 55 55 55 55 
   928)     46352.2  Rx         07E8  8  03 41 04 59 00 00 00 00 
   929)     46449.3  Rx         07DF  8  02 01 10 55 55 55 55 55 
   930)     46454.6  Rx         07E8  8  04 41 10 01 CE 00 00 00 
   931)     46549.3  Rx         07DF  8  02 01 0F 55 55 55 55 55 
   932)     46552.9  Rx         07E8  8  03 41 0F 3E 00 00 00 00 
   933)     46649.3  Rx         07DF  8  02 01 0D 55 55 55 55 55 
   934)     46651.2  Rx         07E8  8  03 41 0D 1D 00 00 00 00 
   935)     46750.3  Rx         07DF  8  02 01 0C 55 55 55 55 55 
   936)     46753.6  Rx         07E8  8  04 41 0C 0F B9 00 00 00 
   937)     46849.3  Rx         07DF  8  02 01 11 55 55 55 55 55 
   938)     46852.1  Rx         07E8  8  03 41 11 2B 00 00 00 00 
   939)     46949.4  Rx         07DF  8  02 01 05 55 55 55 55 55 
   940)     46954.7  Rx         07E8  8  03 41 05 77 00 00 00 00 
   941)     47049.3  Rx         07DF  8  02 01 04 55 55 55 55 55 
   942)     47052.6  Rx         07E8  8  03 41 04 56 00 00 00 00 
   943)     47149.4  Rx         07DF  8  02 01 10 55 55 55 55 55 
   944)     47151.2  Rx         07E8  8  04 41 10 02 54 00 00 00 
   945)     47249.9  Rx         07DF  8  02 01 0F 55 55 55 55 55 
   946)     47253.7  Rx         07E8  8  03 41 0F 3E 00 00 00 00 
   947)     47349.4  Rx         07DF  8  02 01 0D 55 55 55 55 55 
   948)     47352.7  Rx         07E8  8  03 41 0D 1B 00 00 00 00 
   949)     47449.6  Rx         07DF  8  02 01 0C 55 55 55 55 55 
   950)     47454.0  Rx         07E8  8  04 41 0C 10 48 00 00 00 
   951)     47549.2  Rx         07DF  8  02 01 11 55 55 55 55 55 
   952)     47552.6  Rx         07E8  8  03 41 11 2C 00 00 00 00 
   953)     47649.3  Rx         07DF  8  02 01 05 55 55 55 55 55 
   954)     47650.6  Rx         07E8  8  03 41 05 77 00 00 00 00 
   955)     47749.3  Rx         07DF  8  02 01 04 55 55 55 55 55 
   956)     47753.2  Rx         07E8  8  03 41 04 5F 00 00 00 00 
   957)     47849.3  Rx         07DF  8  02 01 10 55 55 55 55 55 
   958)     47851.3  Rx         07E8  8  04 41 10 02 24 00 00 00 
   959)     47949.3  Rx         07DF  8  02 01 0F 55 55 55 55 55 
   960)     47953.7  Rx         07E8  8  03 41 0F 3D 00 00 00 00 
   961)     48049.2  Rx         07DF  8  02 01 0D 55 55 55 55 55 
   962)     48052.0  Rx         07E8  8  03 41 0D 1B 00 00 00 00 
   963)     48149.3  Rx         07DF  8  02 01 0C 55 55 55 55 55 
   964)     48154.4  Rx         07E8  8  04 41 0C 10 45 00 00 00 
   965)     48249.3  Rx         07DF  8  02 01 11 55 55 55 55 55 
   966)     48252.9  Rx         07E8  8  03 41 11 2E 00 00 00 00 
   967)     48349.3  Rx         07DF  8  02 01 05 55 55 55 55 55 
   968)     48351.1  Rx         07E8  8  03 41 05 77 00 00 00 00 
   969)     48449.3  Rx         07DF  8  02 01 04 55 55 55 55 55 
   970)     48453.5  Rx         07E8  8  03 41 04 6A 00 00 00 00 
   971)     48549.2  Rx         07DF  8  02 01 10 55 55 55 55 55 
   972)     48551.7  Rx         07E8  8  04 41 10 03 AB 00 00 00 
   973)     48649.2  Rx         07DF  8  02 01 0F 55 55 55 55 55 
   974)     48654.3  Rx         07E8  8  03 41 0F 3D 00 00 00 00 
   975)     48749.2  Rx         07DF  8  02 01 0D 55 55 55 55 55 
   976)     48752.6  Rx         07E8  8  03 41 0D 1A 00 00 00 00 
   977)     48849.2  Rx         07DF  8  02 01 0C 55 55 55 55 55 
   978)     48850.7  Rx         07E8  8  04 41 0C 12 0A 00 00 00 
   979)     48949.5  Rx         07DF  8  02 01 11 55 55 55 55 55 
   980)     48953.1  Rx         07E8  8  03 41 11 2F 00 00 00 00 
   981)     49049.2  Rx         07DF  8  02 01 05 55 55 55 55 55 
   982)     49051.5  Rx         07E8  8  03 41 05 77 00 00 00 00 
   983)     49149.2  Rx         07DF  8  02 01 04 55 55 55 55 55 
   984)     49153.9  Rx         07E8  8  03 41 04 79 00 00 00 00 
   985)     49249.2  Rx         07DF  8  02 01 10 55 55 55 55 55 
   986)     49252.1  Rx         07E8  8  04 41 10 05 C6 00 00 00 
   987)     49349.2  Rx         07DF  8  02 01 0F 55 55 55 55 55 
   988)     49354.5  Rx         07E8  8  03 41 0F 3D 00 00 00 00 
   989)     49449.6  Rx         07DF  8  02 01 0D 55 55 55 55 55 
   990)     49452.9  Rx         07E8  8  03 41 0D 1A 00 00 00 00 
   991)     49549.1  Rx         07DF  8  02 01 0C 55 55 55 55 55 
   992)     49551.5  Rx         07E8  8  04 41 0C 16 40 00 00 00 
   993)     49649.2  Rx         07DF  8  02 01 11 55 55 55 55 55 
   994)     49654.3  Rx         07E8  8  03 41 11 32 00 00 00 00 
   995)     49749.1  Rx         07DF  8  02 01 05 55 55 55 55 55 
   996)     49751.8  Rx         07E8  8  03 41 05 77 00 00 00 00 
   997)     49849.1  Rx         07DF  8  02 01 04 55 55 55 55 55 
   998)     49854.2  Rx         07E8  8  03 41 04 91 00 00 00 00 
   999)     49949.1  Rx         07DF  8  02 01 10 55 55 55 55 55 
  1000)     49952.5  Rx         07E8  8  04 41 10 04 C9 00 00 00 
  1001)     50049.4  Rx         07DF  8  02 01 0F 55 55 55 55 55 
  1002)     50051.9  Rx         07E8  8  03 41 0F 3D 00 00 00 00 
  1003)     50149.2  Rx         07DF  8  02 01 0D 55 55 55 55 55 
  1004)     50153.2  Rx         07E8  8  03 41 0D 1A 00 00 00 00 
  1005)     50249.1  Rx         07DF  8  02 01 0C 55 55 55 55 55 
  1006)     50251.5  Rx         07E8  8  04 41 0C 14 A1 00 00 00 
  1007)     50349.1  Rx         07DF  8  02 01 11 55 55 55 55 55 
  1008)     50354.2  Rx         07E8  8  03 41 11 31 00 00 00 00 
  1009)     50449.2  Rx         07DF  8  02 01 05 55 55 55 55 55 
  1010)     50452.2  Rx         07E8  8  03 41 05 77 00 00 00 00 
  1011)     50549.2  Rx         07DF  8  02 01 04 55 55 55 55 55 
  1012)     50550.7  Rx         07E8  8  03 41 04 8D 00 00 00 00 
  1013)     50649.2  Rx         07DF  8  02 01 10 55 55 55 55 55 
  1014)     50653.0  Rx         07E8  8  04 41 10 05 63 00 00 00 
  1015)     50749.1  Rx         07DF  8  02 01 0F 55 55 55 55 55 
  1016)     50751.3  Rx         07E8  8  03 41 0F 3C 00 00 00 00 
  1017)     50849.2  Rx         07DF  8  02 01 0D 55 55 55 55 55 
  1018)     50853.9  Rx         07E8  8  03 41 0D 1C 00 00 00 00 
  1019)     50949.5  Rx         07DF  8  02 01 0C 55 55 55 55 55 
  1020)     50952.0  Rx         07E8  8  04 41 0C 15 5F 00 00 00 
  1021)     51049.2  Rx         07DF  8  02 01 11 55 55 55 55 55 
  1022)     51054.6  Rx         07E8  8  03 41 11 33 00 00 00 00 
  1023)     51149.2  Rx         07DF  8  02 01 05 55 55 55 55 55 
  1024)     51152.7  Rx         07E8  8  03 41 05 77 00 00 00 00 
  1025)     51249.2  Rx         07DF  8  02 01 04 55 55 55 55 55 
  1026)     51251.0  Rx         07E8  8  03 41 04 94 00 00 00 00 
  1027)     51349.2  Rx         07DF  8  02 01 10 55 55 55 55 55 
  1028)     51353.4  Rx         07E8  8  04 41 10 05 3F 00 00 00 
  1029)     51449.6  Rx         07DF  8  02 01 0F 55 55 55 55 55 
  1030)     51451.7  Rx         07E8  8  03 41 0F 3C 00 00 00 00 
  1031)     51549.2  Rx         07DF  8  02 01 0D 55 55 55 55 55 
  1032)     51554.4  Rx         07E8  8  03 41 0D 1D 00 00 00 00 
  1033)     51649.2  Rx         07DF  8  02 01 0C 55 55 55 55 55 
  1034)     51652.5  Rx         07E8  8  04 41 0C 15 D9 00 00 00 
  1035)     51749.2  Rx         07DF  8  02 01 11 55 55 55 55 55 
  1036)     51750.8  Rx         07E8  8  03 41 11 32 00 00 00 00 
  1037)     51849.2  Rx         07DF  8  02 01 05 55 55 55 55 55 
  1038)     51853.2  Rx         07E8  8  03 41 05 77 00 00 00 00 
  1039)     51949.2  Rx         07DF  8  02 01 04 55 55 55 55 55 
  1040)     51951.7  Rx         07E8  8  03 41 04 8C 00 00 00 00 
  1041)     52049.2  Rx         07DF  8  02 01 10 55 55 55 55 55 
  1042)     52053.9  Rx         07E8  8  04 41 10 04 D8 00 00 00 
  1043)     52149.2  Rx         07DF  8  02 01 0F 55 55 55 55 55 
  1044)     52152.3  Rx         07E8  8  03 41 0F 3C 00 00 00 00 
  1045)     52249.2  Rx         07DF  8  02 01 0D 55 55 55 55 55 
  1046)     52250.8  Rx         07E8  8  03 41 0D 1D 00 00 00 00 
  1047)     52349.2  Rx         07DF  8  02 01 0C 55 55 55 55 55 
  1048)     52353.0  Rx         07E8  8  04 41 0C 14 AA 00 00 00 
  1049)     52449.4  Rx         07DF  8  02 01 11 55 55 55 55 55 
  1050)     52451.5  Rx         07E8  8  03 41 11 30 00 00 00 00 
  1051)     52549.2  Rx         07DF  8  02 01 05 55 55 55 55 55 
  1052)     52553.6  Rx         07E8  8  03 41 05 78 00 00 00 00 
  1053)     52649.2  Rx         07DF  8  02 01 04 55 55 55 55 55 
  1054)     52652.0  Rx         07E8  8  03 41 04 81 00 00 00 00 
  1055)     52749.1  Rx         07DF  8  02 01 10 55 55 55 55 55 
  1056)     52754.3  Rx         07E8  8  04 41 10 04 4D 00 00 00 
  1057)     52849.1  Rx         07DF  8  02 01 0F 55 55 55 55 55 
  1058)     52853.0  Rx         07E8  8  03 41 0F 3C 00 00 00 00 
  1059)     52949.6  Rx         07DF  8  02 01 0D 55 55 55 55 55 
  1060)     52955.7  Rx         07E8  8  03 41 0D 1D 00 00 00 00 
  1061)     53049.1  Rx         07DF  8  02 01 0C 55 55 55 55 55 
  1062)     53053.3  Rx         07E8  8  04 41 0C 14 05 00 00 00 
  1063)     53149.1  Rx         07DF  8  02 01 11 55 55 55 55 55 
  1064)     53151.6  Rx         07E8  8  03 41 11 35 00 00 00 00 
  1065)     53249.1  Rx         07DF  8  02 01 05 55 55 55 55 55 
  1066)     53254.0  Rx         07E8  8  03 41 05 78 00 00 00 00 
  1067)     53349.1  Rx         07DF  8  02 01 04 55 55 55 55 55 
  1068)     53352.3  Rx         07E8  8  03 41 04 9C 00 00 00 00 
  1069)     53449.8  Rx         07DF  8  02 01 10 55 55 55 55 55 
  1070)     53455.2  Rx         07E8  8  04 41 10 06 B9 00 00 00 
  1071)     53549.1  Rx         07DF  8  02 01 0F 55 55 55 55 55 
  1072)     53553.0  Rx         07E8  8  03 41 0F 3B 00 00 00 00 
  1073)     53649.1  Rx         07DF  8  02 01 0D 55 55 55 55 55 
  1074)     53651.6  Rx         07E8  8  03 41 0D 1D 00 00 00 00 
  1075)     53749.1  Rx         07DF  8  02 01 0C 55 55 55 55 55 
  1076)     53753.9  Rx         07E8  8  04 41 0C 17 ED 00 00 00 
  1077)     53849.1  Rx         07DF  8  02 01 11 55 55 55 55 55 
  1078)     53852.0  Rx         07E8  8  03 41 11 33 00 00 00 00 
  1079)     53949.6  Rx         07DF  8  02 01 05 55 55 55 55 55 
  1080)     53954.4  Rx         07E8  8  03 41 05 78 00 00 00 00 
  1081)     54049.1  Rx         07DF  8  02 01 04 55 55 55 55 55 
  1082)     54052.7  Rx         07E8  8  03 41 04 93 00 00 00 00 
  1083)     54149.2  Rx         07DF  8  02 01 10 55 55 55 55 55 
  1084)     54151.0  Rx         07E8  8  04 41 10 05 52 00 00 00 
  1085)     54249.1  Rx         07DF  8  02 01 0F 55 55 55 55 55 
  1086)     54253.5  Rx         07E8  8  03 41 0F 3B 00 00 00 00 
  1087)     54349.1  Rx         07DF  8  02 01 0D 55 55 55 55 55 
  1088)     54351.8  Rx         07E8  8  03 41 0D 1F 00 00 00 00 
  1089)     54449.9  Rx         07DF  8  02 01 0C 55 55 55 55 55 
  1090)     54454.2  Rx         07E8  8  04 41 0C 16 8B 00 00 00 
  1091)     54549.1  Rx         07DF  8  02 01 11 55 55 55 55 55 
  1092)     54552.5  Rx         07E8  8  03 41 11 34 00 00 00 00 
  1093)     54649.2  Rx         07DF  8  02 01 05 55 55 55 55 55 
  1094)     54650.8  Rx         07E8  8  03 41 05 78 00 00 00 00 
  1095)     54749.1  Rx         07DF  8  02 01 04 55 55 55 55 55 
  1096)     54753.2  Rx         07E8  8  03 41 04 97 00 00 00 00 
  1097)     54849.1  Rx         07DF  8  02 01 10 55 55 55 55 55 
  1098)     54851.4  Rx         07E8  8  04 41 10 06 0E 00 00 00 
  1099)     54949.7  Rx         07DF  8  02 01 0F 55 55 55 55 55 
  1100)     54953.8  Rx         07E8  8  03 41 0F 3A 00 00 00 00 
  1101)     55049.2  Rx         07DF  8  02 01 0D 55 55 55 55 55 
  1102)     55052.1  Rx         07E8  8  03 41 0D 1F 00 00 00 00 
  1103)     55149.1  Rx         07DF  8  02 01 0C 55 55 55 55 55 
  1104)     55150.4  Rx         07E8  8  04 41 0C 16 15 00 00 00 
  1105)     55249.1  Rx         07DF  8  02 01 11 55 55 55 55 55 
  1106)     55253.6  Rx         07E8  8  03 41 11 34 00 00 00 00 
  1107)     55349.1  Rx         07DF  8  02 01 05 55 55 55 55 55 
  1108)     55351.2  Rx         07E8  8  03 41 05 78 00 00 00 00 
  1109)     55449.8  Rx         07DF  8  02 01 04 55 55 55 55 55 
  1110)     55453.6  Rx         07E8  8  03 41 04 98 00 00 00 00 
  1111)     55549.1  Rx         07DF  8  02 01 10 55 55 55 55 55 
  1112)     55552.5  Rx         07E8  8  04 41 10 05 E3 00 00 00 
  1113)     55649.1  Rx         07DF  8  02 01 0F 55 55 55 55 55 
  1114)     55654.4  Rx         07E8  8  03 41 0F 3A 00 00 00 00 
  1115)     55749.1  Rx         07DF  8  02 01 0D 55 55 55 55 55 
  1116)     55752.9  Rx         07E8  8  03 41 0D 1E 00 00 00 00 
  1117)     55849.0  Rx         07DF  8  02 01 0C 55 55 55 55 55 
  1118)     55851.0  Rx         07E8  8  04 41 0C 16 3D 00 00 00 
  1119)     55949.4  Rx         07DF  8  02 01 11 55 55 55 55 55 
  1120)     55953.2  Rx         07E8  8  03 41 11 32 00 00 00 00 
  1121)     56049.0  Rx         07DF  8  02 01 05 55 55 55 55 55 
  1122)     56052.4  Rx         07E8  8  03 41 05 78 00 00 00 00 
  1123)     56149.0  Rx         07DF  8  02 01 04 55 55 55 55 55 
  1124)     56154.4  Rx         07E8  8  03 41 04 93 00 00 00 00 
  1125)     56249.0  Rx         07DF  8  02 01 10 55 55 55 55 55 
  1126)     56252.3  Rx         07E8  8  04 41 10 05 4D 00 00 00 
  1127)     56349.0  Rx         07DF  8  02 01 0F 55 55 55 55 55 
  1128)     56350.6  Rx         07E8  8  03 41 0F 3A 00 00 00 00 
  1129)     56449.8  Rx         07DF  8  02 01 0D 55 55 55 55 55 
  1130)     56453.0  Rx         07E8  8  03 41 0D 20 00 00 00 00 
  1131)     56549.0  Rx         07DF  8  02 01 0C 55 55 55 55 55 
  1132)     56551.7  Rx         07E8  8  04 41 0C 14 F5 00 00 00 
  1133)     56649.0  Rx         07DF  8  02 01 11 55 55 55 55 55 
  1134)     56654.7  Rx         07E8  8  03 41 11 33 00 00 00 00 
  1135)     56749.0  Rx         07DF  8  02 01 05 55 55 55 55 55 
  1136)     56752.0  Rx         07E8  8  03 41 05 78 00 00 00 00 
  1137)     56849.1  Rx         07DF  8  02 01 04 55 55 55 55 55 
  1138)     56854.7  Rx         07E8  8  03 41 04 96 00 00 00 00 
  1139)     56950.0  Rx         07DF  8  02 01 10 55 55 55 55 55 
  1140)     56952.8  Rx         07E8  8  04 41 10 05 15 00 00 00 
  1141)     57049.1  Rx         07DF  8  02 01 0F 55 55 55 55 55 
  1142)     57051.2  Rx         07E8  8  03 41 0F 3A 00 00 00 00 
  1143)     57149.1  Rx         07DF  8  02 01 0D 55 55 55 55 55 
  1144)     57153.5  Rx         07E8  8  03 41 0D 1E 00 00 00 00 
  1145)     57249.1  Rx         07DF  8  02 01 0C 55 55 55 55 55 
  1146)     57252.1  Rx         07E8  8  04 41 0C 15 27 00 00 00 
  1147)     57349.3  Rx         07DF  8  02 01 11 55 55 55 55 55 
  1148)     57354.2  Rx         07E8  8  03 41 11 38 00 00 00 00 
  1149)     57450.2  Rx         07DF  8  02 01 05 55 55 55 55 55 
  1150)     57452.5  Rx         07E8  8  03 41 05 78 00 00 00 00 
  1151)     57549.1  Rx         07DF  8  02 01 04 55 55 55 55 55 
  1152)     57550.8  Rx         07E8  8  03 41 04 A9 00 00 00 00 
  1153)     57649.1  Rx         07DF  8  02 01 10 55 55 55 55 55 
  1154)     57653.2  Rx         07E8  8  04 41 10 06 F8 00 00 00 
  1155)     57749.1  Rx         07DF  8  02 01 0F 55 55 55 55 55 
  1156)     57751.5  Rx         07E8  8  03 41 0F 3A 00 00 00 00 
  1157)     57849.1  Rx         07DF  8  02 01 0D 55 55 55 55 55 
  1158)     57854.0  Rx         07E8  8  03 41 0D 1E 00 00 00 00 
  1159)     57949.5  Rx         07DF  8  02 01 0C 55 55 55 55 55 
  1160)     57952.2  Rx         07E8  8  04 41 0C 17 E6 00 00 00 
  1161)     58049.0  Rx         07DF  8  02 01 11 55 55 55 55 55 
  1162)     58050.5  Rx         07E8  8  03 41 11 35 00 00 00 00 
  1163)     58149.2  Rx         07DF  8  02 01 05 55 55 55 55 55 
  1164)     58152.9  Rx         07E8  8  03 41 05 78 00 00 00 00 
  1165)     58249.0  Rx         07DF  8  02 01 04 55 55 55 55 55 
  1166)     58251.2  Rx         07E8  8  03 41 04 9D 00 00 00 00 
  1167)     58349.0  Rx         07DF  8  02 01 10 55 55 55 55 55 
  1168)     58353.6  Rx         07E8  8  04 41 10 05 FE 00 00 00 
  1169)     58449.8  Rx         07DF  8  02 01 0F 55 55 55 55 55 
  1170)     58451.9  Rx         07E8  8  03 41 0F 3A 00 00 00 00 
  1171)     58549.0  Rx         07DF  8  02 01 0D 55 55 55 55 55 
  1172)     58554.6  Rx         07E8  8  03 41 0D 1D 00 00 00 00 
  1173)     58649.0  Rx         07DF  8  02 01 0C 55 55 55 55 55 
  1174)     58652.9  Rx         07E8  8  04 41 0C 16 88 00 00 00 
  1175)     58749.0  Rx         07DF  8  02 01 11 55 55 55 55 55 
  1176)     58751.1  Rx         07E8  8  03 41 11 33 00 00 00 00 
  1177)     58849.0  Rx         07DF  8  02 01 05 55 55 55 55 55 
  1178)     58853.6  Rx         07E8  8  03 41 05 78 00 00 00 00 
  1179)     58949.4  Rx         07DF  8  02 01 04 55 55 55 55 55 
  1180)     58951.7  Rx         07E8  8  03 41 04 98 00 00 00 00 
  1181)     59049.0  Rx         07DF  8  02 01 10 55 55 55 55 55 
  1182)     59054.3  Rx         07E8  8  04 41 10 07 68 00 00 00 
  1183)     59149.1  Rx         07DF  8  02 01 0F 55 55 55 55 55 
  1184)     59152.4  Rx         07E8  8  03 41 0F 39 00 00 00 00 
  1185)     59249.1  Rx         07DF  8  02 01 0D 55 55 55 55 55 
  1186)     59250.8  Rx         07E8  8  03 41 0D 1C 00 00 00 00 
  1187)     59349.1  Rx         07DF  8  02 01 0C 55 55 55 55 55 
  1188)     59353.8  Rx         07E8  8  04 41 0C 1A 83 00 00 00 
  1189)     59450.1  Rx         07DF  8  02 01 11 55 55 55 55 55 
  1190)     59455.7  Rx         07E8  8  03 41 11 3C 00 00 00 00 
  1191)     59549.0  Rx         07DF  8  02 01 05 55 55 55 55 55 
  1192)     59553.8  Rx         07E8  8  03 41 05 78 00 00 00 00 
  1193)     59649.1  Rx         07DF  8  02 01 04 55 55 55 55 55 
  1194)     59652.1  Rx         07E8  8  03 41 04 B5 00 00 00 00 
  1195)     59749.1  Rx         07DF  8  02 01 10 55 55 55 55 55 
  1196)     59751.2  Rx         07E8  8  04 41 10 08 98 00 00 00 
  1197)     59849.1  Rx         07DF  8  02 01 0F 55 55 55 55 55 
  1198)     59853.5  Rx         07E8  8  03 41 0F 39 00 00 00 00 
  1199)     59949.1  Rx         07DF  8  02 01 0D 55 55 55 55 55 
  1200)     59951.4  Rx         07E8  8  03 41 0D 1C 00 00 00 00 
  1201)     60049.1  Rx         07DF  8  02 01 0C 55 55 55 55 55 
  1202)     60053.5  Rx         07E8  8  04 41 0C 19 70 00 00 00 
  1203)     60149.1  Rx         07DF  8  02 01 11 55 55 55 55 55 
  1204)     60152.1  Rx         07E8  8  03 41 11 34 00 00 00 00 
  1205)     60249.0  Rx         07DF  8  02 01 05 55 55 55 55 55 
  1206)     60254.3  Rx         07E8  8  03 41 05 78 00 00 00 00 
  1207)     60349.0  Rx         07DF  8  02 01 04 55 55 55 55 55 
  1208)     60352.5  Rx         07E8  8  03 41 04 8E 00 00 00 00 
  1209)     60449.0  Rx         07DF  8  02 01 10 55 55 55 55 55 
  1210)     60451.1  Rx         07E8  8  04 41 10 04 52 00 00 00 
  1211)     60549.1  Rx         07DF  8  02 01 0F 55 55 55 55 55 
  1212)     60553.2  Rx         07E8  8  03 41 0F 39 00 00 00 00 
  1213)     60649.1  Rx         07DF  8  02 01 0D 55 55 55 55 55 
  1214)     60651.6  Rx         07E8  8  03 41 0D 1C 00 00 00 00 
  1215)     60749.2  Rx         07DF  8  02 01 0C 55 55 55 55 55 
  1216)     60753.9  Rx         07E8  8  04 41 0C 13 5F 00 00 00 
  1217)     60849.1  Rx         07DF  8  02 01 11 55 55 55 55 55 
  1218)     60852.3  Rx         07E8  8  03 41 11 2A 00 00 00 00 
  1219)     60949.8  Rx         07DF  8  02 01 05 55 55 55 55 55 
  1220)     60954.6  Rx         07E8  8  03 41 05 78 00 00 00 00 
  1221)     61049.2  Rx         07DF  8  02 01 04 55 55 55 55 55 
  1222)     61053.1  Rx         07E8  8  03 41 04 63 00 00 00 00 
  1223)     61150.0  Rx         07DF  8  02 01 10 55 55 55 55 55 
  1224)     61155.4  Rx         07E8  8  04 41 10 01 A9 00 00 00 
  1225)     61249.2  Rx         07DF  8  02 01 0F 55 55 55 55 55 
  1226)     61253.7  Rx         07E8  8  03 41 0F 39 00 00 00 00 
  1227)     61349.2  Rx         07DF  8  02 01 0D 55 55 55 55 55 
  1228)     61352.0  Rx         07E8  8  03 41 0D 1E 00 00 00 00 
  1229)     61450.4  Rx         07DF  8  02 01 0C 55 55 55 55 55 
  1230)     61454.4  Rx         07E8  8  04 41 0C 11 81 00 00 00 
  1231)     61549.1  Rx         07DF  8  02 01 11 55 55 55 55 55 
  1232)     61552.7  Rx         07E8  8  03 41 11 28 00 00 00 00 
  1233)     61649.1  Rx         07DF  8  02 01 05 55 55 55 55 55 
  1234)     61651.1  Rx         07E8  8  03 41 05 79 00 00 00 00 
  1235)     61749.1  Rx         07DF  8  02 01 04 55 55 55 55 55 
  1236)     61753.9  Rx         07E8  8  03 41 04 45 00 00 00 00 
  1237)     61849.1  Rx         07DF  8  02 01 10 55 55 55 55 55 
  1238)     61851.8  Rx         07E8  8  04 41 10 01 B7 00 00 00 
  1239)     61949.0  Rx         07DF  8  02 01 0F 55 55 55 55 55 
  1240)     61954.2  Rx         07E8  8  03 41 0F 3A 00 00 00 00 
  1241)     62049.1  Rx         07DF  8  02 01 0D 55 55 55 55 55 
  1242)     62052.7  Rx         07E8  8  03 41 0D 1E 00 00 00 00 
  1243)     62149.0  Rx         07DF  8  02 01 0C 55 55 55 55 55 
  1244)     62150.9  Rx         07E8  8  04 41 0C 11 3C 00 00 00 
  1245)     62249.0  Rx         07DF  8  02 01 11 55 55 55 55 55 
  1246)     62253.1  Rx         07E8  8  03 41 11 29 00 00 00 00 
  1247)     62349.0  Rx         07DF  8  02 01 05 55 55 55 55 55 
  1248)     62351.4  Rx         07E8  8  03 41 05 79 00 00 00 00 
  1249)     62449.0  Rx         07DF  8  02 01 04 55 55 55 55 55 
  1250)     62453.8  Rx         07E8  8  03 41 04 46 00 00 00 00 
  1251)     62549.0  Rx         07DF  8  02 01 10 55 55 55 55 55 
  1252)     62552.4  Rx         07E8  8  04 41 10 01 9C 00 00 00 
  1253)     62649.0  Rx         07DF  8  02 01 0F 55 55 55 55 55 
  1254)     62650.5  Rx         07E8  8  03 41 0F 3A 00 00 00 00 
  1255)     62749.0  Rx         07DF  8  02 01 0D 55 55 55 55 55 
  1256)     62752.9  Rx         07E8  8  03 41 0D 1E 00 00 00 00 
  1257)     62849.0  Rx         07DF  8  02 01 0C 55 55 55 55 55 
  1258)     62851.2  Rx         07E8  8  04 41 0C 11 1D 00 00 00 
  1259)     62949.1  Rx         07DF  8  02 01 11 55 55 55 55 55 
  1260)     62953.6  Rx         07E8  8  03 41 11 29 00 00 00 00 
  1261)     63049.0  Rx         07DF  8  02 01 05 55 55 55 55 55 
  1262)     63052.9  Rx         07E8  8  03 41 05 79 00 00 00 00 
  1263)     63149.1  Rx         07DF  8  02 01 04 55 55 55 55 55 
  1264)     63154.6  Rx         07E8  8  03 41 04 4A 00 00 00 00 
  1265)     63248.9  Rx         07DF  8  02 01 10 55 55 55 55 55 
  1266)     63252.7  Rx         07E8  8  04 41 10 01 CB 00 00 00 
  1267)     63349.0  Rx         07DF  8  02 01 0F 55 55 55 55 55 
  1268)     63350.8  Rx         07E8  8  03 41 0F 3B 00 00 00 00 
  1269)     63448.9  Rx         07DF  8  02 01 0D 55 55 55 55 55 
  1270)     63453.2  Rx         07E8  8  03 41 0D 1E 00 00 00 00 
  1271)     63549.0  Rx         07DF  8  02 01 0C 55 55 55 55 55 
  1272)     63552.6  Rx         07E8  8  04 41 0C 11 33 00 00 00 
  1273)     63649.0  Rx         07DF  8  02 01 11 55 55 55 55 55 
  1274)     63653.9  Rx         07E8  8  03 41 11 2A 00 00 00 00 
  1275)     63748.9  Rx         07DF  8  02 01 05 55 55 55 55 55 
  1276)     63752.5  Rx         07E8  8  03 41 05 79 00 00 00 00 
  1277)     63849.0  Rx         07DF  8  02 01 04 55 55 55 55 55 
  1278)     63850.6  Rx         07E8  8  03 41 04 4B 00 00 00 00 
  1279)     63948.9  Rx         07DF  8  02 01 10 55 55 55 55 55 
  1280)     63953.0  Rx         07E8  8  04 41 10 01 A7 00 00 00 
  1281)     64048.9  Rx         07DF  8  02 01 0F 55 55 55 55 55 
  1282)     64051.3  Rx         07E8  8  03 41 0F 3B 00 00 00 00 
  1283)     64149.5  Rx         07DF  8  02 01 0D 55 55 55 55 55 
  1284)     64153.7  Rx         07E8  8  03 41 0D 1E 00 00 00 00 
  1285)     64248.9  Rx         07DF  8  02 01 0C 55 55 55 55 55 
  1286)     64251.9  Rx         07E8  8  04 41 0C 10 F1 00 00 00 
  1287)     64348.9  Rx         07DF  8  02 01 11 55 55 55 55 55 
  1288)     64350.2  Rx         07E8  8  03 41 11 29 00 00 00 00 
  1289)     64448.9  Rx         07DF  8  02 01 05 55 55 55 55 55 
  1290)     64452.6  Rx         07E8  8  03 41 05 79 00 00 00 00 
  1291)     64548.9  Rx         07DF  8  02 01 04 55 55 55 55 55 
  1292)     64550.9  Rx         07E8  8  03 41 04 48 00 00 00 00 
  1293)     64648.9  Rx         07DF  8  02 01 10 55 55 55 55 55 
  1294)     64653.3  Rx         07E8  8  04 41 10 01 A4 00 00 00 
  1295)     64749.0  Rx         07DF  8  02 01 0F 55 55 55 55 55 
  1296)     64751.7  Rx         07E8  8  03 41 0F 3B 00 00 00 00 
  1297)     64848.9  Rx         07DF  8  02 01 0D 55 55 55 55 55 
  1298)     64854.1  Rx         07E8  8  03 41 0D 1E 00 00 00 00 
  1299)     64948.9  Rx         07DF  8  02 01 0C 55 55 55 55 55 
  1300)     64952.4  Rx         07E8  8  04 41 0C 10 BF 00 00 00 
  1301)     65048.9  Rx         07DF  8  02 01 11 55 55 55 55 55 
  1302)     65050.9  Rx         07E8  8  03 41 11 29 00 00 00 00 
  1303)     65149.0  Rx         07DF  8  02 01 05 55 55 55 55 55 
  1304)     65153.3  Rx         07E8  8  03 41 05 79 00 00 00 00 
  1305)     65248.9  Rx         07DF  8  02 01 04 55 55 55 55 55 
  1306)     65251.4  Rx         07E8  8  03 41 04 48 00 00 00 00 
  1307)     65348.8  Rx         07DF  8  02 01 10 55 55 55 55 55 
  1308)     65353.9  Rx         07E8  8  04 41 10 01 88 00 00 00 
  1309)     65448.8  Rx         07DF  8  02 01 0F 55 55 55 55 55 
  1310)     65452.0  Rx         07E8  8  03 41 0F 3B 00 00 00 00 
  1311)     65548.9  Rx         07DF  8  02 01 0D 55 55 55 55 55 
  1312)     65550.3  Rx         07E8  8  03 41 0D 1D 00 00 00 00 
  1313)     65648.8  Rx         07DF  8  02 01 0C 55 55 55 55 55 
  1314)     65652.7  Rx         07E8  8  04 41 0C 10 07 00 00 00 
  1315)     65748.8  Rx         07DF  8  02 01 11 55 55 55 55 55 
  1316)     65751.8  Rx         07E8  8  03 41 11 28 00 00 00 00 
  1317)     65848.8  Rx         07DF  8  02 01 05 55 55 55 55 55 
  1318)     65853.5  Rx         07E8  8  03 41 05 79 00 00 00 00 
  1319)     65948.8  Rx         07DF  8  02 01 04 55 55 55 55 55 
  1320)     65951.8  Rx         07E8  8  03 41 04 47 00 00 00 00 
  1321)     66048.8  Rx         07DF  8  02 01 10 55 55 55 55 55 
  1322)     66054.2  Rx         07E8  8  04 41 10 01 88 00 00 00 
  1323)     66149.2  Rx         07DF  8  02 01 0F 55 55 55 55 55 
  1324)     66152.5  Rx         07E8  8  03 41 0F 3B 00 00 00 00 
  1325)     66248.8  Rx         07DF  8  02 01 0D 55 55 55 55 55 
  1326)     66251.2  Rx         07E8  8  03 41 0D 1C 00 00 00 00 
  1327)     66348.7  Rx         07DF  8  02 01 0C 55 55 55 55 55 
  1328)     66353.7  Rx         07E8  8  04 41 0C 0E F4 00 00 00 
  1329)     66448.7  Rx         07DF  8  02 01 11 55 55 55 55 55 
  1330)     66451.4  Rx         07E8  8  03 41 11 28 00 00 00 00 
  1331)     66548.8  Rx         07DF  8  02 01 05 55 55 55 55 55 
  1332)     66554.1  Rx         07E8  8  03 41 05 79 00 00 00 00 
  1333)     66648.8  Rx         07DF  8  02 01 04 55 55 55 55 55 
  1334)     66652.4  Rx         07E8  8  03 41 04 48 00 00 00 00 
  1335)     66748.7  Rx         07DF  8  02 01 10 55 55 55 55 55 
  1336)     66751.5  Rx         07E8  8  04 41 10 01 5F 00 00 00 
  1337)     66848.9  Rx         07DF  8  02 01 0F 55 55 55 55 55 
  1338)     66853.4  Rx         07E8  8  03 41 0F 3B 00 00 00 00 
  1339)     66948.7  Rx         07DF  8  02 01 0D 55 55 55 55 55 
  1340)     66951.2  Rx         07E8  8  03 41 0D 1A 00 00 00 00 
  1341)     67048.8  Rx         07DF  8  02 01 0C 55 55 55 55 55 
  1342)     67053.8  Rx         07E8  8  04 41 0C 0D 3E 00 00 00 
  1343)     67149.3  Rx         07DF  8  02 01 11 55 55 55 55 55 
  1344)     67151.9  Rx         07E8  8  03 41 11 28 00 00 00 00 
  1345)     67248.7  Rx         07DF  8  02 01 05 55 55 55 55 55 
  1346)     67250.2  Rx         07E8  8  03 41 05 79 00 00 00 00 
  1347)     67348.8  Rx         07DF  8  02 01 04 55 55 55 55 55 
  1348)     67352.6  Rx         07E8  8  03 41 04 4A 00 00 00 00 
  1349)     67448.8  Rx         07DF  8  02 01 10 55 55 55 55 55 
  1350)     67451.0  Rx         07E8  8  04 41 10 01 4F 00 00 00 
  1351)     67548.8  Rx         07DF  8  02 01 0F 55 55 55 55 55 
  1352)     67553.4  Rx         07E8  8  03 41 0F 3C 00 00 00 00 
  1353)     67648.8  Rx         07DF  8  02 01 0D 55 55 55 55 55 
  1354)     67651.7  Rx         07E8  8  03 41 0D 18 00 00 00 00 
  1355)     67748.8  Rx         07DF  8  02 01 0C 55 55 55 55 55 
  1356)     67754.1  Rx         07E8  8  04 41 0C 0D 09 00 00 00 
  1357)     67848.8  Rx         07DF  8  02 01 11 55 55 55 55 55 
  1358)     67852.4  Rx         07E8  8  03 41 11 2C 00 00 00 00 
  1359)     67948.8  Rx         07DF  8  02 01 05 55 55 55 55 55 
  1360)     67951.2  Rx         07E8  8  03 41 05 79 00 00 00 00 
  1361)     68048.8  Rx         07DF  8  02 01 04 55 55 55 55 55 
  1362)     68053.1  Rx         07E8  8  03 41 04 5E 00 00 00 00 
  1363)     68149.0  Rx         07DF  8  02 01 10 55 55 55 55 55 
  1364)     68151.4  Rx         07E8  8  04 41 10 03 1E 00 00 00 
  1365)     68248.8  Rx         07DF  8  02 01 0F 55 55 55 55 55 
  1366)     68254.1  Rx         07E8  8  03 41 0F 3C 00 00 00 00 
  1367)     68348.8  Rx         07DF  8  02 01 0D 55 55 55 55 55 
  1368)     68352.1  Rx         07E8  8  03 41 0D 16 00 00 00 00 
  1369)     68448.7  Rx         07DF  8  02 01 0C 55 55 55 55 55 
  1370)     68451.2  Rx         07E8  8  04 41 0C 0F E7 00 00 00 
  1371)     68548.7  Rx         07DF  8  02 01 11 55 55 55 55 55 
  1372)     68552.8  Rx         07E8  8  03 41 11 2F 00 00 00 00 
  1373)     68648.8  Rx         07DF  8  02 01 05 55 55 55 55 55 
  1374)     68651.1  Rx         07E8  8  03 41 05 7A 00 00 00 00 
  1375)     68748.7  Rx         07DF  8  02 01 04 55 55 55 55 55 
  1376)     68753.5  Rx         07E8  8  03 41 04 78 00 00 00 00 
  1377)     68848.8  Rx         07DF  8  02 01 10 55 55 55 55 55 
  1378)     68851.8  Rx         07E8  8  04 41 10 03 AB 00 00 00 
  1379)     68948.7  Rx         07DF  8  02 01 0F 55 55 55 55 55 
  1380)     68950.1  Rx         07E8  8  03 41 0F 3B 00 00 00 00 
  1381)     69048.8  Rx         07DF  8  02 01 0D 55 55 55 55 55 
  1382)     69052.9  Rx         07E8  8  03 41 0D 16 00 00 00 00 
  1383)     69149.4  Rx         07DF  8  02 01 0C 55 55 55 55 55 
  1384)     69150.8  Rx         07E8  8  04 41 0C 12 39 00 00 00 
  1385)     69248.7  Rx         07DF  8  02 01 11 55 55 55 55 55 
  1386)     69253.2  Rx         07E8  8  03 41 11 2F 00 00 00 00 
  1387)     69348.8  Rx         07DF  8  02 01 05 55 55 55 55 55 
  1388)     69351.6  Rx         07E8  8  03 41 05 7A 00 00 00 00 
  1389)     69448.7  Rx         07DF  8  02 01 04 55 55 55 55 55 
  1390)     69453.9  Rx         07E8  8  03 41 04 7A 00 00 00 00 
  1391)     69548.7  Rx         07DF  8  02 01 10 55 55 55 55 55 
  1392)     69552.2  Rx         07E8  8  04 41 10 04 31 00 00 00 
  1393)     69648.7  Rx         07DF  8  02 01 0F 55 55 55 55 55 
  1394)     69650.5  Rx         07E8  8  03 41 0F 3B 00 00 00 00 
  1395)     69748.7  Rx         07DF  8  02 01 0D 55 55 55 55 55 
  1396)     69752.9  Rx         07E8  8  03 41 0D 17 00 00 00 00 
  1397)     69848.7  Rx         07DF  8  02 01 0C 55 55 55 55 55 
  1398)     69851.4  Rx         07E8  8  04 41 0C 14 21 00 00 00 
  1399)     69948.7  Rx         07DF  8  02 01 11 55 55 55 55 55 
  1400)     69953.6  Rx         07E8  8  03 41 11 33 00 00 00 00 
  1401)     70048.7  Rx         07DF  8  02 01 05 55 55 55 55 55 
  1402)     70053.1  Rx         07E8  8  03 41 05 7A 00 00 00 00 
  1403)     70149.2  Rx         07DF  8  02 01 04 55 55 55 55 55 
  1404)     70154.9  Rx         07E8  8  03 41 04 91 00 00 00 00 
  1405)     70248.7  Rx         07DF  8  02 01 10 55 55 55 55 55 
  1406)     70252.6  Rx         07E8  8  04 41 10 06 09 00 00 00 
  1407)     70348.7  Rx         07DF  8  02 01 0F 55 55 55 55 55 
  1408)     70350.9  Rx         07E8  8  03 41 0F 3A 00 00 00 00 
  1409)     70448.7  Rx         07DF  8  02 01 0D 55 55 55 55 55 
  1410)     70453.3  Rx         07E8  8  03 41 0D 16 00 00 00 00 
  1411)     70548.7  Rx         07DF  8  02 01 0C 55 55 55 55 55 
  1412)     70551.6  Rx         07E8  8  04 41 0C 16 F9 00 00 00 
  1413)     70648.8  Rx         07DF  8  02 01 11 55 55 55 55 55 
  1414)     70654.0  Rx         07E8  8  03 41 11 37 00 00 00 00 
  1415)     70748.7  Rx         07DF  8  02 01 05 55 55 55 55 55 
  1416)     70752.3  Rx         07E8  8  03 41 05 7A 00 00 00 00 
  1417)     70848.7  Rx         07DF  8  02 01 04 55 55 55 55 55 
  1418)     70850.7  Rx         07E8  8  03 41 04 AA 00 00 00 00 
  1419)     70948.7  Rx         07DF  8  02 01 10 55 55 55 55 55 
  1420)     70953.0  Rx         07E8  8  04 41 10 08 77 00 00 00 
  1421)     71048.7  Rx         07DF  8  02 01 0F 55 55 55 55 55 
  1422)     71051.4  Rx         07E8  8  03 41 0F 3A 00 00 00 00 
  1423)     71149.7  Rx         07DF  8  02 01 0D 55 55 55 55 55 
  1424)     71153.8  Rx         07E8  8  03 41 0D 16 00 00 00 00 
  1425)     71248.7  Rx         07DF  8  02 01 0C 55 55 55 55 55 
  1426)     71252.4  Rx         07E8  8  04 41 0C 1C 16 00 00 00 
  1427)     71348.7  Rx         07DF  8  02 01 11 55 55 55 55 55 
  1428)     71350.7  Rx         07E8  8  03 41 11 4B 00 00 00 00 
  1429)     71448.7  Rx         07DF  8  02 01 05 55 55 55 55 55 
  1430)     71452.8  Rx         07E8  8  03 41 05 7A 00 00 00 00 
  1431)     71548.7  Rx         07DF  8  02 01 04 55 55 55 55 55 
  1432)     71551.6  Rx         07E8  8  03 41 04 DC 00 00 00 00 
  1433)     71649.1  Rx         07DF  8  02 01 10 55 55 55 55 55 
  1434)     71653.7  Rx         07E8  8  04 41 10 10 C4 00 00 00 
  1435)     71748.8  Rx         07DF  8  02 01 0F 55 55 55 55 55 
  1436)     71752.5  Rx         07E8  8  03 41 0F 38 00 00 00 00 
  1437)     71848.8  Rx         07DF  8  02 01 0D 55 55 55 55 55 
  1438)     71850.2  Rx         07E8  8  03 41 0D 18 00 00 00 00 
  1439)     71948.7  Rx         07DF  8  02 01 0C 55 55 55 55 55 
  1440)     71952.6  Rx         07E8  8  04 41 0C 22 C4 00 00 00 
  1441)     72048.7  Rx         07DF  8  02 01 11 55 55 55 55 55 
  1442)     72050.9  Rx         07E8  8  03 41 11 4F 00 00 00 00 
  1443)     72149.2  Rx         07DF  8  02 01 05 55 55 55 55 55 
  1444)     72153.3  Rx         07E8  8  03 41 05 7A 00 00 00 00 
  1445)     72248.8  Rx         07DF  8  02 01 04 55 55 55 55 55 
  1446)     72251.6  Rx         07E8  8  03 41 04 DE 00 00 00 00 
  1447)     72348.8  Rx         07DF  8  02 01 10 55 55 55 55 55 
  1448)     72354.0  Rx         07E8  8  04 41 10 13 3E 00 00 00 
  1449)     72448.7  Rx         07DF  8  02 01 0F 55 55 55 55 55 
  1450)     72452.3  Rx         07E8  8  03 41 0F 38 00 00 00 00 
  1451)     72548.8  Rx         07DF  8  02 01 0D 55 55 55 55 55 
  1452)     72550.6  Rx         07E8  8  03 41 0D 1B 00 00 00 00 
  1453)     72648.7  Rx         07DF  8  02 01 0C 55 55 55 55 55 
  1454)     72652.9  Rx         07E8  8  04 41 0C 24 AE 00 00 00 
  1455)     72748.7  Rx         07DF  8  02 01 11 55 55 55 55 55 
  1456)     72751.7  Rx         07E8  8  03 41 11 53 00 00 00 00 
  1457)     72848.7  Rx         07DF  8  02 01 05 55 55 55 55 55 
  1458)     72853.7  Rx         07E8  8  03 41 05 7A 00 00 00 00 
  1459)     72948.7  Rx         07DF  8  02 01 04 55 55 55 55 55 
  1460)     72952.0  Rx         07E8  8  03 41 04 E1 00 00 00 00 
  1461)     73048.7  Rx         07DF  8  02 01 10 55 55 55 55 55 
  1462)     73050.3  Rx         07E8  8  04 41 10 15 5E 00 00 00 
  1463)     73149.4  Rx         07DF  8  02 01 0F 55 55 55 55 55 
  1464)     73152.9  Rx         07E8  8  03 41 0F 37 00 00 00 00 
  1465)     73248.7  Rx         07DF  8  02 01 0D 55 55 55 55 55 
  1466)     73251.0  Rx         07E8  8  03 41 0D 1F 00 00 00 00 
  1467)     73348.7  Rx         07DF  8  02 01 0C 55 55 55 55 55 
  1468)     73354.0  Rx         07E8  8  04 41 0C 26 4B 00 00 00 
  1469)     73448.7  Rx         07DF  8  02 01 11 55 55 55 55 55 
  1470)     73451.7  Rx         07E8  8  03 41 11 4B 00 00 00 00 
  1471)     73548.7  Rx         07DF  8  02 01 05 55 55 55 55 55 
  1472)     73550.0  Rx         07E8  8  03 41 05 7A 00 00 00 00 
  1473)     73648.7  Rx         07DF  8  02 01 04 55 55 55 55 55 
  1474)     73652.7  Rx         07E8  8  03 41 04 D1 00 00 00 00 
  1475)     73748.7  Rx         07DF  8  02 01 10 55 55 55 55 55 
  1476)     73751.5  Rx         07E8  8  04 41 10 14 7A 00 00 00 
  1477)     73848.7  Rx         07DF  8  02 01 0F 55 55 55 55 55 
  1478)     73853.8  Rx         07E8  8  03 41 0F 37 00 00 00 00 
  1479)     73948.7  Rx         07DF  8  02 01 0D 55 55 55 55 55 
  1480)     73951.4  Rx         07E8  8  03 41 0D 23 00 00 00 00 
  1481)     74048.7  Rx         07DF  8  02 01 0C 55 55 55 55 55 
  1482)     74053.8  Rx         07E8  8  04 41 0C 28 0A 00 00 00 
  1483)     74148.9  Rx         07DF  8  02 01 11 55 55 55 55 55 
  1484)     74152.2  Rx         07E8  8  03 41 11 46 00 00 00 00 
  1485)     74248.7  Rx         07DF  8  02 01 05 55 55 55 55 55 
  1486)     74251.0  Rx         07E8  8  03 41 05 7A 00 00 00 00 
  1487)     74348.7  Rx         07DF  8  02 01 04 55 55 55 55 55 
  1488)     74353.7  Rx         07E8  8  03 41 04 AC 00 00 00 00 
  1489)     74448.7  Rx         07DF  8  02 01 10 55 55 55 55 55 
  1490)     74451.2  Rx         07E8  8  04 41 10 10 2F 00 00 00 
  1491)     74548.7  Rx         07DF  8  02 01 0F 55 55 55 55 55 
  1492)     74553.8  Rx         07E8  8  03 41 0F 36 00 00 00 00 
  1493)     74648.7  Rx         07DF  8  02 01 0D 55 55 55 55 55 
  1494)     74651.9  Rx         07E8  8  03 41 0D 28 00 00 00 00 
  1495)     74748.6  Rx         07DF  8  02 01 0C 55 55 55 55 55 
  1496)     74750.1  Rx         07E8  8  04 41 0C 23 6C 00 00 00 
  1497)     74848.6  Rx         07DF  8  02 01 11 55 55 55 55 55 
  1498)     74853.6  Rx         07E8  8  03 41 11 3E 00 00 00 00 
  1499)     74948.6  Rx         07DF  8  02 01 05 55 55 55 55 55 
  1500)     74951.0  Rx         07E8  8  03 41 05 7B 00 00 00 00 
  1501)     75048.6  Rx         07DF  8  02 01 04 55 55 55 55 55 
  1502)     75053.5  Rx         07E8  8  03 41 04 AB 00 00 00 00 
  1503)     75149.2  Rx         07DF  8  02 01 10 55 55 55 55 55 
  1504)     75151.6  Rx         07E8  8  04 41 10 08 98 00 00 00 
  1505)     75248.6  Rx         07DF  8  02 01 0F 55 55 55 55 55 
  1506)     75253.9  Rx         07E8  8  03 41 0F 36 00 00 00 00 
  1507)     75348.7  Rx         07DF  8  02 01 0D 55 55 55 55 55 
